[31m vcan0  7E0  [3]  [SF] ln: 2    data: 11 01                 -  '..'      - [SRQ] ECUReset[0m
[34m vcan0  7E8  [8]  [SF] ln: 2    data: 51 01 00 00 00 00 00  -  'Q......' - [PSR] ECUReset[0m
[31m vcan0  7E0  [3]  [SF] ln: 2    data: 10 03                 -  '..'      - [SRQ] DiagnosticSessionControl[0m
[34m vcan0  7E8  [8]  [SF] ln: 2    data: 50 03 00 00 00 00 00  -  'P......' - [PSR] DiagnosticSessionControl[0m
[31m vcan0  7E0  [3]  [SF] ln: 2    data: 27 03                 -  ''.'      - [SRQ] SecurityAccess[0m
[34m vcan0  7E8  [8]  [SF] ln: 4    data: 67 03 B7 B3 00 00 00  -  'g......' - [PSR] SecurityAccess[0m
[31m vcan0  7E0  [5]  [SF] ln: 4    data: 27 04 48 4C           -  ''.HL'    - [SRQ] SecurityAccess[0m
[34m vcan0  7E8  [8]  [SF] ln: 2    data: 67 04 00 00 00 00 00  -  'g......' - [PSR] SecurityAccess[0m
[31m vcan0  7E0  [3]  [SF] ln: 2    data: 10 00                 -  '..'      - [SRQ] DiagnosticSessionControl[0m
[34m vcan0  7E8  [8]  [SF] ln: 3    data: 7F 10 12 00 00 00 00  -  '.......' - [NRC] sub-functionNotSupported[0m
[31m vcan0  7E0  [3]  [SF] ln: 2    data: 10 01                 -  '..'      - [SRQ] DiagnosticSessionControl[0m
[34m vcan0  7E8  [8]  [SF] ln: 2    data: 50 01 00 00 00 00 00  -  'P......' - [PSR] DiagnosticSessionControl[0m
[31m vcan0  7E0  [3]  [SF] ln: 2    data: 10 02                 -  '..'      - [SRQ] DiagnosticSessionControl[0m
[34m vcan0  7E8  [8]  [SF] ln: 2    data: 50 02 00 00 00 00 00  -  'P......' - [PSR] DiagnosticSessionControl[0m
[31m vcan0  7E0  [3]  [SF] ln: 2    data: 10 03                 -  '..'      - [SRQ] DiagnosticSessionControl[0m
[34m vcan0  7E8  [8]  [SF] ln: 2    data: 50 03 00 00 00 00 00  -  'P......' - [PSR] DiagnosticSessionControl[0m
[31m vcan0  7E0  [3]  [SF] ln: 2    data: 10 04                 -  '..'      - [SRQ] DiagnosticSessionControl[0m
[34m vcan0  7E8  [8]  [SF] ln: 3    data: 7F 10 12 00 00 00 00  -  '.......' - [NRC] sub-functionNotSupported[0m
[31m vcan0  7E0  [3]  [SF] ln: 2    data: 10 05                 -  '..'      - [SRQ] DiagnosticSessionControl[0m
[34m vcan0  7E8  [8]  [SF] ln: 3    data: 7F 10 12 00 00 00 00  -  '.......' - [NRC] sub-functionNotSupported[0m
[31m vcan0  7E0  [3]  [SF] ln: 2    data: 10 06                 -  '..'      - [SRQ] DiagnosticSessionControl[0m
[34m vcan0  7E8  [8]  [SF] ln: 3    data: 7F 10 12 00 00 00 00  -  '.......' - [NRC] sub-functionNotSupported[0m
[31m vcan0  7E0  [3]  [SF] ln: 2    data: 10 07                 -  '..'      - [SRQ] DiagnosticSessionControl[0m
[34m vcan0  7E8  [8]  [SF] ln: 3    data: 7F 10 12 00 00 00 00  -  '.......' - [NRC] sub-functionNotSupported[0m
[31m vcan0  7E0  [3]  [SF] ln: 2    data: 10 08                 -  '..'      - [SRQ] DiagnosticSessionControl[0m
[34m vcan0  7E8  [8]  [SF] ln: 3    data: 7F 10 12 00 00 00 00  -  '.......' - [NRC] sub-functionNotSupported[0m
[31m vcan0  7E0  [3]  [SF] ln: 2    data: 10 09                 -  '..'      - [SRQ] DiagnosticSessionControl[0m
[34m vcan0  7E8  [8]  [SF] ln: 3    data: 7F 10 12 00 00 00 00  -  '.......' - [NRC] sub-functionNotSupported[0m
[31m vcan0  7E0  [3]  [SF] ln: 2    data: 10 0A                 -  '..'      - [SRQ] DiagnosticSessionControl[0m
[34m vcan0  7E8  [8]  [SF] ln: 3    data: 7F 10 12 00 00 00 00  -  '.......' - [NRC] sub-functionNotSupported[0m
[31m vcan0  7E0  [3]  [SF] ln: 2    data: 10 0B                 -  '..'      - [SRQ] DiagnosticSessionControl[0m
[34m vcan0  7E8  [8]  [SF] ln: 3    data: 7F 10 12 00 00 00 00  -  '.......' - [NRC] sub-functionNotSupported[0m
[31m vcan0  7E0  [3]  [SF] ln: 2    data: 10 0C                 -  '..'      - [SRQ] DiagnosticSessionControl[0m
[34m vcan0  7E8  [8]  [SF] ln: 3    data: 7F 10 12 00 00 00 00  -  '.......' - [NRC] sub-functionNotSupported[0m
[31m vcan0  7E0  [3]  [SF] ln: 2    data: 10 0D                 -  '..'      - [SRQ] DiagnosticSessionControl[0m
[34m vcan0  7E8  [8]  [SF] ln: 3    data: 7F 10 12 00 00 00 00  -  '.......' - [NRC] sub-functionNotSupported[0m
[31m vcan0  7E0  [3]  [SF] ln: 2    data: 10 0E                 -  '..'      - [SRQ] DiagnosticSessionControl[0m
[34m vcan0  7E8  [8]  [SF] ln: 3    data: 7F 10 12 00 00 00 00  -  '.......' - [NRC] sub-functionNotSupported[0m
[31m vcan0  7E0  [3]  [SF] ln: 2    data: 10 0F                 -  '..'      - [SRQ] DiagnosticSessionControl[0m
[34m vcan0  7E8  [8]  [SF] ln: 3    data: 7F 10 12 00 00 00 00  -  '.......' - [NRC] sub-functionNotSupported[0m
[31m vcan0  7E0  [3]  [SF] ln: 2    data: 10 10                 -  '..'      - [SRQ] DiagnosticSessionControl[0m
[34m vcan0  7E8  [8]  [SF] ln: 3    data: 7F 10 12 00 00 00 00  -  '.......' - [NRC] sub-functionNotSupported[0m
[31m vcan0  7E0  [3]  [SF] ln: 2    data: 10 11                 -  '..'      - [SRQ] DiagnosticSessionControl[0m
[34m vcan0  7E8  [8]  [SF] ln: 3    data: 7F 10 12 00 00 00 00  -  '.......' - [NRC] sub-functionNotSupported[0m
[31m vcan0  7E0  [3]  [SF] ln: 2    data: 10 12                 -  '..'      - [SRQ] DiagnosticSessionControl[0m
[34m vcan0  7E8  [8]  [SF] ln: 3    data: 7F 10 12 00 00 00 00  -  '.......' - [NRC] sub-functionNotSupported[0m
[31m vcan0  7E0  [3]  [SF] ln: 2    data: 10 13                 -  '..'      - [SRQ] DiagnosticSessionControl[0m
[34m vcan0  7E8  [8]  [SF] ln: 3    data: 7F 10 12 00 00 00 00  -  '.......' - [NRC] sub-functionNotSupported[0m
[31m vcan0  7E0  [3]  [SF] ln: 2    data: 10 14                 -  '..'      - [SRQ] DiagnosticSessionControl[0m
[34m vcan0  7E8  [8]  [SF] ln: 3    data: 7F 10 12 00 00 00 00  -  '.......' - [NRC] sub-functionNotSupported[0m
[31m vcan0  7E0  [3]  [SF] ln: 2    data: 10 15                 -  '..'      - [SRQ] DiagnosticSessionControl[0m
[34m vcan0  7E8  [8]  [SF] ln: 3    data: 7F 10 12 00 00 00 00  -  '.......' - [NRC] sub-functionNotSupported[0m
[31m vcan0  7E0  [3]  [SF] ln: 2    data: 10 16                 -  '..'      - [SRQ] DiagnosticSessionControl[0m
[34m vcan0  7E8  [8]  [SF] ln: 3    data: 7F 10 12 00 00 00 00  -  '.......' - [NRC] sub-functionNotSupported[0m
[31m vcan0  7E0  [3]  [SF] ln: 2    data: 10 17                 -  '..'      - [SRQ] DiagnosticSessionControl[0m
[34m vcan0  7E8  [8]  [SF] ln: 3    data: 7F 10 12 00 00 00 00  -  '.......' - [NRC] sub-functionNotSupported[0m
[31m vcan0  7E0  [3]  [SF] ln: 2    data: 10 18                 -  '..'      - [SRQ] DiagnosticSessionControl[0m
[34m vcan0  7E8  [8]  [SF] ln: 3    data: 7F 10 12 00 00 00 00  -  '.......' - [NRC] sub-functionNotSupported[0m
[31m vcan0  7E0  [3]  [SF] ln: 2    data: 10 19                 -  '..'      - [SRQ] DiagnosticSessionControl[0m
[34m vcan0  7E8  [8]  [SF] ln: 3    data: 7F 10 12 00 00 00 00  -  '.......' - [NRC] sub-functionNotSupported[0m
[31m vcan0  7E0  [3]  [SF] ln: 2    data: 10 1A                 -  '..'      - [SRQ] DiagnosticSessionControl[0m
[34m vcan0  7E8  [8]  [SF] ln: 3    data: 7F 10 12 00 00 00 00  -  '.......' - [NRC] sub-functionNotSupported[0m
[31m vcan0  7E0  [3]  [SF] ln: 2    data: 10 1B                 -  '..'      - [SRQ] DiagnosticSessionControl[0m
[34m vcan0  7E8  [8]  [SF] ln: 3    data: 7F 10 12 00 00 00 00  -  '.......' - [NRC] sub-functionNotSupported[0m
[31m vcan0  7E0  [3]  [SF] ln: 2    data: 10 1C                 -  '..'      - [SRQ] DiagnosticSessionControl[0m
[34m vcan0  7E8  [8]  [SF] ln: 3    data: 7F 10 12 00 00 00 00  -  '.......' - [NRC] sub-functionNotSupported[0m
[31m vcan0  7E0  [3]  [SF] ln: 2    data: 10 1D                 -  '..'      - [SRQ] DiagnosticSessionControl[0m
[34m vcan0  7E8  [8]  [SF] ln: 3    data: 7F 10 12 00 00 00 00  -  '.......' - [NRC] sub-functionNotSupported[0m
[31m vcan0  7E0  [3]  [SF] ln: 2    data: 10 1E                 -  '..'      - [SRQ] DiagnosticSessionControl[0m
[34m vcan0  7E8  [8]  [SF] ln: 3    data: 7F 10 12 00 00 00 00  -  '.......' - [NRC] sub-functionNotSupported[0m
[31m vcan0  7E0  [3]  [SF] ln: 2    data: 10 1F                 -  '..'      - [SRQ] DiagnosticSessionControl[0m
[34m vcan0  7E8  [8]  [SF] ln: 3    data: 7F 10 12 00 00 00 00  -  '.......' - [NRC] sub-functionNotSupported[0m
[31m vcan0  7E0  [3]  [SF] ln: 2    data: 10 20                 -  '. '      - [SRQ] DiagnosticSessionControl[0m
[34m vcan0  7E8  [8]  [SF] ln: 3    data: 7F 10 12 00 00 00 00  -  '.......' - [NRC] sub-functionNotSupported[0m
[31m vcan0  7E0  [3]  [SF] ln: 2    data: 10 21                 -  '.!'      - [SRQ] DiagnosticSessionControl[0m
[34m vcan0  7E8  [8]  [SF] ln: 3    data: 7F 10 12 00 00 00 00  -  '.......' - [NRC] sub-functionNotSupported[0m
[31m vcan0  7E0  [3]  [SF] ln: 2    data: 10 22                 -  '."'      - [SRQ] DiagnosticSessionControl[0m
[34m vcan0  7E8  [8]  [SF] ln: 3    data: 7F 10 12 00 00 00 00  -  '.......' - [NRC] sub-functionNotSupported[0m
[31m vcan0  7E0  [3]  [SF] ln: 2    data: 10 23                 -  '.#'      - [SRQ] DiagnosticSessionControl[0m
[34m vcan0  7E8  [8]  [SF] ln: 3    data: 7F 10 12 00 00 00 00  -  '.......' - [NRC] sub-functionNotSupported[0m
[31m vcan0  7E0  [3]  [SF] ln: 2    data: 10 24                 -  '.$'      - [SRQ] DiagnosticSessionControl[0m
[34m vcan0  7E8  [8]  [SF] ln: 3    data: 7F 10 12 00 00 00 00  -  '.......' - [NRC] sub-functionNotSupported[0m
[31m vcan0  7E0  [3]  [SF] ln: 2    data: 10 25                 -  '.%'      - [SRQ] DiagnosticSessionControl[0m
[34m vcan0  7E8  [8]  [SF] ln: 3    data: 7F 10 12 00 00 00 00  -  '.......' - [NRC] sub-functionNotSupported[0m
[31m vcan0  7E0  [3]  [SF] ln: 2    data: 10 26                 -  '.&'      - [SRQ] DiagnosticSessionControl[0m
[34m vcan0  7E8  [8]  [SF] ln: 3    data: 7F 10 12 00 00 00 00  -  '.......' - [NRC] sub-functionNotSupported[0m
[31m vcan0  7E0  [3]  [SF] ln: 2    data: 10 27                 -  '.''      - [SRQ] DiagnosticSessionControl[0m
[34m vcan0  7E8  [8]  [SF] ln: 3    data: 7F 10 12 00 00 00 00  -  '.......' - [NRC] sub-functionNotSupported[0m
[31m vcan0  7E0  [3]  [SF] ln: 2    data: 10 28                 -  '.('      - [SRQ] DiagnosticSessionControl[0m
[34m vcan0  7E8  [8]  [SF] ln: 3    data: 7F 10 12 00 00 00 00  -  '.......' - [NRC] sub-functionNotSupported[0m
[31m vcan0  7E0  [3]  [SF] ln: 2    data: 10 29                 -  '.)'      - [SRQ] DiagnosticSessionControl[0m
[34m vcan0  7E8  [8]  [SF] ln: 3    data: 7F 10 12 00 00 00 00  -  '.......' - [NRC] sub-functionNotSupported[0m
[31m vcan0  7E0  [3]  [SF] ln: 2    data: 10 2A                 -  '.*'      - [SRQ] DiagnosticSessionControl[0m
[34m vcan0  7E8  [8]  [SF] ln: 3    data: 7F 10 12 00 00 00 00  -  '.......' - [NRC] sub-functionNotSupported[0m
[31m vcan0  7E0  [3]  [SF] ln: 2    data: 10 2B                 -  '.+'      - [SRQ] DiagnosticSessionControl[0m
[34m vcan0  7E8  [8]  [SF] ln: 3    data: 7F 10 12 00 00 00 00  -  '.......' - [NRC] sub-functionNotSupported[0m
[31m vcan0  7E0  [3]  [SF] ln: 2    data: 10 2C                 -  '.,'      - [SRQ] DiagnosticSessionControl[0m
[34m vcan0  7E8  [8]  [SF] ln: 3    data: 7F 10 12 00 00 00 00  -  '.......' - [NRC] sub-functionNotSupported[0m
[31m vcan0  7E0  [3]  [SF] ln: 2    data: 10 2D                 -  '.-'      - [SRQ] DiagnosticSessionControl[0m
[34m vcan0  7E8  [8]  [SF] ln: 3    data: 7F 10 12 00 00 00 00  -  '.......' - [NRC] sub-functionNotSupported[0m
[31m vcan0  7E0  [3]  [SF] ln: 2    data: 10 2E                 -  '..'      - [SRQ] DiagnosticSessionControl[0m
[34m vcan0  7E8  [8]  [SF] ln: 3    data: 7F 10 12 00 00 00 00  -  '.......' - [NRC] sub-functionNotSupported[0m
[31m vcan0  7E0  [3]  [SF] ln: 2    data: 10 2F                 -  './'      - [SRQ] DiagnosticSessionControl[0m
[34m vcan0  7E8  [8]  [SF] ln: 3    data: 7F 10 12 00 00 00 00  -  '.......' - [NRC] sub-functionNotSupported[0m
[31m vcan0  7E0  [3]  [SF] ln: 2    data: 10 30                 -  '.0'      - [SRQ] DiagnosticSessionControl[0m
[34m vcan0  7E8  [8]  [SF] ln: 3    data: 7F 10 12 00 00 00 00  -  '.......' - [NRC] sub-functionNotSupported[0m
[31m vcan0  7E0  [3]  [SF] ln: 2    data: 10 31                 -  '.1'      - [SRQ] DiagnosticSessionControl[0m
[34m vcan0  7E8  [8]  [SF] ln: 3    data: 7F 10 12 00 00 00 00  -  '.......' - [NRC] sub-functionNotSupported[0m
[31m vcan0  7E0  [3]  [SF] ln: 2    data: 10 32                 -  '.2'      - [SRQ] DiagnosticSessionControl[0m
[34m vcan0  7E8  [8]  [SF] ln: 3    data: 7F 10 12 00 00 00 00  -  '.......' - [NRC] sub-functionNotSupported[0m
[31m vcan0  7E0  [3]  [SF] ln: 2    data: 10 33                 -  '.3'      - [SRQ] DiagnosticSessionControl[0m
[34m vcan0  7E8  [8]  [SF] ln: 3    data: 7F 10 12 00 00 00 00  -  '.......' - [NRC] sub-functionNotSupported[0m
[31m vcan0  7E0  [3]  [SF] ln: 2    data: 10 34                 -  '.4'      - [SRQ] DiagnosticSessionControl[0m
[34m vcan0  7E8  [8]  [SF] ln: 3    data: 7F 10 12 00 00 00 00  -  '.......' - [NRC] sub-functionNotSupported[0m
[31m vcan0  7E0  [3]  [SF] ln: 2    data: 10 35                 -  '.5'      - [SRQ] DiagnosticSessionControl[0m
[34m vcan0  7E8  [8]  [SF] ln: 3    data: 7F 10 12 00 00 00 00  -  '.......' - [NRC] sub-functionNotSupported[0m
[31m vcan0  7E0  [3]  [SF] ln: 2    data: 10 36                 -  '.6'      - [SRQ] DiagnosticSessionControl[0m
[34m vcan0  7E8  [8]  [SF] ln: 3    data: 7F 10 12 00 00 00 00  -  '.......' - [NRC] sub-functionNotSupported[0m
[31m vcan0  7E0  [3]  [SF] ln: 2    data: 10 37                 -  '.7'      - [SRQ] DiagnosticSessionControl[0m
[34m vcan0  7E8  [8]  [SF] ln: 3    data: 7F 10 12 00 00 00 00  -  '.......' - [NRC] sub-functionNotSupported[0m
[31m vcan0  7E0  [3]  [SF] ln: 2    data: 10 38                 -  '.8'      - [SRQ] DiagnosticSessionControl[0m
[34m vcan0  7E8  [8]  [SF] ln: 3    data: 7F 10 12 00 00 00 00  -  '.......' - [NRC] sub-functionNotSupported[0m
[31m vcan0  7E0  [3]  [SF] ln: 2    data: 10 39                 -  '.9'      - [SRQ] DiagnosticSessionControl[0m
[34m vcan0  7E8  [8]  [SF] ln: 3    data: 7F 10 12 00 00 00 00  -  '.......' - [NRC] sub-functionNotSupported[0m
[31m vcan0  7E0  [3]  [SF] ln: 2    data: 10 3A                 -  '.:'      - [SRQ] DiagnosticSessionControl[0m
[34m vcan0  7E8  [8]  [SF] ln: 3    data: 7F 10 12 00 00 00 00  -  '.......' - [NRC] sub-functionNotSupported[0m
[31m vcan0  7E0  [3]  [SF] ln: 2    data: 10 3B                 -  '.;'      - [SRQ] DiagnosticSessionControl[0m
[34m vcan0  7E8  [8]  [SF] ln: 3    data: 7F 10 12 00 00 00 00  -  '.......' - [NRC] sub-functionNotSupported[0m
[31m vcan0  7E0  [3]  [SF] ln: 2    data: 10 3C                 -  '.<'      - [SRQ] DiagnosticSessionControl[0m
[34m vcan0  7E8  [8]  [SF] ln: 3    data: 7F 10 12 00 00 00 00  -  '.......' - [NRC] sub-functionNotSupported[0m
[31m vcan0  7E0  [3]  [SF] ln: 2    data: 10 3D                 -  '.='      - [SRQ] DiagnosticSessionControl[0m
[34m vcan0  7E8  [8]  [SF] ln: 3    data: 7F 10 12 00 00 00 00  -  '.......' - [NRC] sub-functionNotSupported[0m
[31m vcan0  7E0  [3]  [SF] ln: 2    data: 10 3E                 -  '.>'      - [SRQ] DiagnosticSessionControl[0m
[34m vcan0  7E8  [8]  [SF] ln: 3    data: 7F 10 12 00 00 00 00  -  '.......' - [NRC] sub-functionNotSupported[0m
[31m vcan0  7E0  [3]  [SF] ln: 2    data: 10 3F                 -  '.?'      - [SRQ] DiagnosticSessionControl[0m
[34m vcan0  7E8  [8]  [SF] ln: 3    data: 7F 10 12 00 00 00 00  -  '.......' - [NRC] sub-functionNotSupported[0m
[31m vcan0  7E0  [3]  [SF] ln: 2    data: 10 40                 -  '.@'      - [SRQ] DiagnosticSessionControl[0m
[34m vcan0  7E8  [8]  [SF] ln: 3    data: 7F 10 12 00 00 00 00  -  '.......' - [NRC] sub-functionNotSupported[0m
[31m vcan0  7E0  [3]  [SF] ln: 2    data: 10 41                 -  '.A'      - [SRQ] DiagnosticSessionControl[0m
[34m vcan0  7E8  [8]  [SF] ln: 3    data: 7F 10 12 00 00 00 00  -  '.......' - [NRC] sub-functionNotSupported[0m
[31m vcan0  7E0  [3]  [SF] ln: 2    data: 10 42                 -  '.B'      - [SRQ] DiagnosticSessionControl[0m
[34m vcan0  7E8  [8]  [SF] ln: 3    data: 7F 10 12 00 00 00 00  -  '.......' - [NRC] sub-functionNotSupported[0m
[31m vcan0  7E0  [3]  [SF] ln: 2    data: 10 43                 -  '.C'      - [SRQ] DiagnosticSessionControl[0m
[34m vcan0  7E8  [8]  [SF] ln: 3    data: 7F 10 12 00 00 00 00  -  '.......' - [NRC] sub-functionNotSupported[0m
[31m vcan0  7E0  [3]  [SF] ln: 2    data: 10 44                 -  '.D'      - [SRQ] DiagnosticSessionControl[0m
[34m vcan0  7E8  [8]  [SF] ln: 3    data: 7F 10 12 00 00 00 00  -  '.......' - [NRC] sub-functionNotSupported[0m
[31m vcan0  7E0  [3]  [SF] ln: 2    data: 10 45                 -  '.E'      - [SRQ] DiagnosticSessionControl[0m
[34m vcan0  7E8  [8]  [SF] ln: 3    data: 7F 10 12 00 00 00 00  -  '.......' - [NRC] sub-functionNotSupported[0m
[31m vcan0  7E0  [3]  [SF] ln: 2    data: 10 46                 -  '.F'      - [SRQ] DiagnosticSessionControl[0m
[34m vcan0  7E8  [8]  [SF] ln: 3    data: 7F 10 12 00 00 00 00  -  '.......' - [NRC] sub-functionNotSupported[0m
[31m vcan0  7E0  [3]  [SF] ln: 2    data: 10 47                 -  '.G'      - [SRQ] DiagnosticSessionControl[0m
[34m vcan0  7E8  [8]  [SF] ln: 3    data: 7F 10 12 00 00 00 00  -  '.......' - [NRC] sub-functionNotSupported[0m
[31m vcan0  7E0  [3]  [SF] ln: 2    data: 10 48                 -  '.H'      - [SRQ] DiagnosticSessionControl[0m
[34m vcan0  7E8  [8]  [SF] ln: 3    data: 7F 10 12 00 00 00 00  -  '.......' - [NRC] sub-functionNotSupported[0m
[31m vcan0  7E0  [3]  [SF] ln: 2    data: 10 49                 -  '.I'      - [SRQ] DiagnosticSessionControl[0m
[34m vcan0  7E8  [8]  [SF] ln: 3    data: 7F 10 12 00 00 00 00  -  '.......' - [NRC] sub-functionNotSupported[0m
[31m vcan0  7E0  [3]  [SF] ln: 2    data: 10 4A                 -  '.J'      - [SRQ] DiagnosticSessionControl[0m
[34m vcan0  7E8  [8]  [SF] ln: 3    data: 7F 10 12 00 00 00 00  -  '.......' - [NRC] sub-functionNotSupported[0m
[31m vcan0  7E0  [3]  [SF] ln: 2    data: 10 4B                 -  '.K'      - [SRQ] DiagnosticSessionControl[0m
[34m vcan0  7E8  [8]  [SF] ln: 3    data: 7F 10 12 00 00 00 00  -  '.......' - [NRC] sub-functionNotSupported[0m
[31m vcan0  7E0  [3]  [SF] ln: 2    data: 10 4C                 -  '.L'      - [SRQ] DiagnosticSessionControl[0m
[34m vcan0  7E8  [8]  [SF] ln: 3    data: 7F 10 12 00 00 00 00  -  '.......' - [NRC] sub-functionNotSupported[0m
[31m vcan0  7E0  [3]  [SF] ln: 2    data: 10 4D                 -  '.M'      - [SRQ] DiagnosticSessionControl[0m
[34m vcan0  7E8  [8]  [SF] ln: 3    data: 7F 10 12 00 00 00 00  -  '.......' - [NRC] sub-functionNotSupported[0m
[31m vcan0  7E0  [3]  [SF] ln: 2    data: 10 4E                 -  '.N'      - [SRQ] DiagnosticSessionControl[0m
[34m vcan0  7E8  [8]  [SF] ln: 3    data: 7F 10 12 00 00 00 00  -  '.......' - [NRC] sub-functionNotSupported[0m
[31m vcan0  7E0  [3]  [SF] ln: 2    data: 10 4F                 -  '.O'      - [SRQ] DiagnosticSessionControl[0m
[34m vcan0  7E8  [8]  [SF] ln: 3    data: 7F 10 12 00 00 00 00  -  '.......' - [NRC] sub-functionNotSupported[0m
[31m vcan0  7E0  [3]  [SF] ln: 2    data: 10 50                 -  '.P'      - [SRQ] DiagnosticSessionControl[0m
[34m vcan0  7E8  [8]  [SF] ln: 3    data: 7F 10 12 00 00 00 00  -  '.......' - [NRC] sub-functionNotSupported[0m
[31m vcan0  7E0  [3]  [SF] ln: 2    data: 10 51                 -  '.Q'      - [SRQ] DiagnosticSessionControl[0m
[34m vcan0  7E8  [8]  [SF] ln: 3    data: 7F 10 12 00 00 00 00  -  '.......' - [NRC] sub-functionNotSupported[0m
[31m vcan0  7E0  [3]  [SF] ln: 2    data: 10 52                 -  '.R'      - [SRQ] DiagnosticSessionControl[0m
[34m vcan0  7E8  [8]  [SF] ln: 3    data: 7F 10 12 00 00 00 00  -  '.......' - [NRC] sub-functionNotSupported[0m
[31m vcan0  7E0  [3]  [SF] ln: 2    data: 10 53                 -  '.S'      - [SRQ] DiagnosticSessionControl[0m
[34m vcan0  7E8  [8]  [SF] ln: 3    data: 7F 10 12 00 00 00 00  -  '.......' - [NRC] sub-functionNotSupported[0m
[31m vcan0  7E0  [3]  [SF] ln: 2    data: 10 54                 -  '.T'      - [SRQ] DiagnosticSessionControl[0m
[34m vcan0  7E8  [8]  [SF] ln: 3    data: 7F 10 12 00 00 00 00  -  '.......' - [NRC] sub-functionNotSupported[0m
[31m vcan0  7E0  [3]  [SF] ln: 2    data: 10 55                 -  '.U'      - [SRQ] DiagnosticSessionControl[0m
[34m vcan0  7E8  [8]  [SF] ln: 3    data: 7F 10 12 00 00 00 00  -  '.......' - [NRC] sub-functionNotSupported[0m
[31m vcan0  7E0  [3]  [SF] ln: 2    data: 10 56                 -  '.V'      - [SRQ] DiagnosticSessionControl[0m
[34m vcan0  7E8  [8]  [SF] ln: 3    data: 7F 10 12 00 00 00 00  -  '.......' - [NRC] sub-functionNotSupported[0m
[31m vcan0  7E0  [3]  [SF] ln: 2    data: 10 57                 -  '.W'      - [SRQ] DiagnosticSessionControl[0m
[34m vcan0  7E8  [8]  [SF] ln: 3    data: 7F 10 12 00 00 00 00  -  '.......' - [NRC] sub-functionNotSupported[0m
[31m vcan0  7E0  [3]  [SF] ln: 2    data: 10 58                 -  '.X'      - [SRQ] DiagnosticSessionControl[0m
[34m vcan0  7E8  [8]  [SF] ln: 3    data: 7F 10 12 00 00 00 00  -  '.......' - [NRC] sub-functionNotSupported[0m
[31m vcan0  7E0  [3]  [SF] ln: 2    data: 10 59                 -  '.Y'      - [SRQ] DiagnosticSessionControl[0m
[34m vcan0  7E8  [8]  [SF] ln: 3    data: 7F 10 12 00 00 00 00  -  '.......' - [NRC] sub-functionNotSupported[0m
[31m vcan0  7E0  [3]  [SF] ln: 2    data: 10 5A                 -  '.Z'      - [SRQ] DiagnosticSessionControl[0m
[34m vcan0  7E8  [8]  [SF] ln: 3    data: 7F 10 12 00 00 00 00  -  '.......' - [NRC] sub-functionNotSupported[0m
[31m vcan0  7E0  [3]  [SF] ln: 2    data: 10 5B                 -  '.['      - [SRQ] DiagnosticSessionControl[0m
[34m vcan0  7E8  [8]  [SF] ln: 3    data: 7F 10 12 00 00 00 00  -  '.......' - [NRC] sub-functionNotSupported[0m
[31m vcan0  7E0  [3]  [SF] ln: 2    data: 10 5C                 -  '.\'      - [SRQ] DiagnosticSessionControl[0m
[34m vcan0  7E8  [8]  [SF] ln: 3    data: 7F 10 12 00 00 00 00  -  '.......' - [NRC] sub-functionNotSupported[0m
[31m vcan0  7E0  [3]  [SF] ln: 2    data: 10 5D                 -  '.]'      - [SRQ] DiagnosticSessionControl[0m
[34m vcan0  7E8  [8]  [SF] ln: 3    data: 7F 10 12 00 00 00 00  -  '.......' - [NRC] sub-functionNotSupported[0m
[31m vcan0  7E0  [3]  [SF] ln: 2    data: 10 5E                 -  '.^'      - [SRQ] DiagnosticSessionControl[0m
[34m vcan0  7E8  [8]  [SF] ln: 3    data: 7F 10 12 00 00 00 00  -  '.......' - [NRC] sub-functionNotSupported[0m
[31m vcan0  7E0  [3]  [SF] ln: 2    data: 10 5F                 -  '._'      - [SRQ] DiagnosticSessionControl[0m
[34m vcan0  7E8  [8]  [SF] ln: 3    data: 7F 10 12 00 00 00 00  -  '.......' - [NRC] sub-functionNotSupported[0m
[31m vcan0  7E0  [3]  [SF] ln: 2    data: 10 60                 -  '.`'      - [SRQ] DiagnosticSessionControl[0m
[34m vcan0  7E8  [8]  [SF] ln: 3    data: 7F 10 12 00 00 00 00  -  '.......' - [NRC] sub-functionNotSupported[0m
[31m vcan0  7E0  [3]  [SF] ln: 2    data: 10 61                 -  '.a'      - [SRQ] DiagnosticSessionControl[0m
[34m vcan0  7E8  [8]  [SF] ln: 3    data: 7F 10 12 00 00 00 00  -  '.......' - [NRC] sub-functionNotSupported[0m
[31m vcan0  7E0  [3]  [SF] ln: 2    data: 10 62                 -  '.b'      - [SRQ] DiagnosticSessionControl[0m
[34m vcan0  7E8  [8]  [SF] ln: 3    data: 7F 10 12 00 00 00 00  -  '.......' - [NRC] sub-functionNotSupported[0m
[31m vcan0  7E0  [3]  [SF] ln: 2    data: 10 63                 -  '.c'      - [SRQ] DiagnosticSessionControl[0m
[34m vcan0  7E8  [8]  [SF] ln: 3    data: 7F 10 12 00 00 00 00  -  '.......' - [NRC] sub-functionNotSupported[0m
[31m vcan0  7E0  [3]  [SF] ln: 2    data: 10 64                 -  '.d'      - [SRQ] DiagnosticSessionControl[0m
[34m vcan0  7E8  [8]  [SF] ln: 3    data: 7F 10 12 00 00 00 00  -  '.......' - [NRC] sub-functionNotSupported[0m
[31m vcan0  7E0  [3]  [SF] ln: 2    data: 10 65                 -  '.e'      - [SRQ] DiagnosticSessionControl[0m
[34m vcan0  7E8  [8]  [SF] ln: 3    data: 7F 10 12 00 00 00 00  -  '.......' - [NRC] sub-functionNotSupported[0m
[31m vcan0  7E0  [3]  [SF] ln: 2    data: 10 66                 -  '.f'      - [SRQ] DiagnosticSessionControl[0m
[34m vcan0  7E8  [8]  [SF] ln: 3    data: 7F 10 12 00 00 00 00  -  '.......' - [NRC] sub-functionNotSupported[0m
[31m vcan0  7E0  [3]  [SF] ln: 2    data: 10 67                 -  '.g'      - [SRQ] DiagnosticSessionControl[0m
[34m vcan0  7E8  [8]  [SF] ln: 3    data: 7F 10 12 00 00 00 00  -  '.......' - [NRC] sub-functionNotSupported[0m
[31m vcan0  7E0  [3]  [SF] ln: 2    data: 10 68                 -  '.h'      - [SRQ] DiagnosticSessionControl[0m
[34m vcan0  7E8  [8]  [SF] ln: 3    data: 7F 10 12 00 00 00 00  -  '.......' - [NRC] sub-functionNotSupported[0m
[31m vcan0  7E0  [3]  [SF] ln: 2    data: 10 69                 -  '.i'      - [SRQ] DiagnosticSessionControl[0m
[34m vcan0  7E8  [8]  [SF] ln: 3    data: 7F 10 12 00 00 00 00  -  '.......' - [NRC] sub-functionNotSupported[0m
[31m vcan0  7E0  [3]  [SF] ln: 2    data: 10 6A                 -  '.j'      - [SRQ] DiagnosticSessionControl[0m
[34m vcan0  7E8  [8]  [SF] ln: 3    data: 7F 10 12 00 00 00 00  -  '.......' - [NRC] sub-functionNotSupported[0m
[31m vcan0  7E0  [3]  [SF] ln: 2    data: 10 6B                 -  '.k'      - [SRQ] DiagnosticSessionControl[0m
[34m vcan0  7E8  [8]  [SF] ln: 3    data: 7F 10 12 00 00 00 00  -  '.......' - [NRC] sub-functionNotSupported[0m
[31m vcan0  7E0  [3]  [SF] ln: 2    data: 10 6C                 -  '.l'      - [SRQ] DiagnosticSessionControl[0m
[34m vcan0  7E8  [8]  [SF] ln: 3    data: 7F 10 12 00 00 00 00  -  '.......' - [NRC] sub-functionNotSupported[0m
[31m vcan0  7E0  [3]  [SF] ln: 2    data: 10 6D                 -  '.m'      - [SRQ] DiagnosticSessionControl[0m
[34m vcan0  7E8  [8]  [SF] ln: 3    data: 7F 10 12 00 00 00 00  -  '.......' - [NRC] sub-functionNotSupported[0m
[31m vcan0  7E0  [3]  [SF] ln: 2    data: 10 6E                 -  '.n'      - [SRQ] DiagnosticSessionControl[0m
[34m vcan0  7E8  [8]  [SF] ln: 3    data: 7F 10 12 00 00 00 00  -  '.......' - [NRC] sub-functionNotSupported[0m
[31m vcan0  7E0  [3]  [SF] ln: 2    data: 10 6F                 -  '.o'      - [SRQ] DiagnosticSessionControl[0m
[34m vcan0  7E8  [8]  [SF] ln: 3    data: 7F 10 12 00 00 00 00  -  '.......' - [NRC] sub-functionNotSupported[0m
[31m vcan0  7E0  [3]  [SF] ln: 2    data: 10 70                 -  '.p'      - [SRQ] DiagnosticSessionControl[0m
[34m vcan0  7E8  [8]  [SF] ln: 3    data: 7F 10 12 00 00 00 00  -  '.......' - [NRC] sub-functionNotSupported[0m
[31m vcan0  7E0  [3]  [SF] ln: 2    data: 10 71                 -  '.q'      - [SRQ] DiagnosticSessionControl[0m
[34m vcan0  7E8  [8]  [SF] ln: 3    data: 7F 10 12 00 00 00 00  -  '.......' - [NRC] sub-functionNotSupported[0m
[31m vcan0  7E0  [3]  [SF] ln: 2    data: 10 72                 -  '.r'      - [SRQ] DiagnosticSessionControl[0m
[34m vcan0  7E8  [8]  [SF] ln: 3    data: 7F 10 12 00 00 00 00  -  '.......' - [NRC] sub-functionNotSupported[0m
[31m vcan0  7E0  [3]  [SF] ln: 2    data: 10 73                 -  '.s'      - [SRQ] DiagnosticSessionControl[0m
[34m vcan0  7E8  [8]  [SF] ln: 3    data: 7F 10 12 00 00 00 00  -  '.......' - [NRC] sub-functionNotSupported[0m
[31m vcan0  7E0  [3]  [SF] ln: 2    data: 10 74                 -  '.t'      - [SRQ] DiagnosticSessionControl[0m
[34m vcan0  7E8  [8]  [SF] ln: 3    data: 7F 10 12 00 00 00 00  -  '.......' - [NRC] sub-functionNotSupported[0m
[31m vcan0  7E0  [3]  [SF] ln: 2    data: 10 75                 -  '.u'      - [SRQ] DiagnosticSessionControl[0m
[34m vcan0  7E8  [8]  [SF] ln: 3    data: 7F 10 12 00 00 00 00  -  '.......' - [NRC] sub-functionNotSupported[0m
[31m vcan0  7E0  [3]  [SF] ln: 2    data: 10 76                 -  '.v'      - [SRQ] DiagnosticSessionControl[0m
[34m vcan0  7E8  [8]  [SF] ln: 3    data: 7F 10 12 00 00 00 00  -  '.......' - [NRC] sub-functionNotSupported[0m
[31m vcan0  7E0  [3]  [SF] ln: 2    data: 10 77                 -  '.w'      - [SRQ] DiagnosticSessionControl[0m
[34m vcan0  7E8  [8]  [SF] ln: 3    data: 7F 10 12 00 00 00 00  -  '.......' - [NRC] sub-functionNotSupported[0m
[31m vcan0  7E0  [3]  [SF] ln: 2    data: 10 78                 -  '.x'      - [SRQ] DiagnosticSessionControl[0m
[34m vcan0  7E8  [8]  [SF] ln: 3    data: 7F 10 12 00 00 00 00  -  '.......' - [NRC] sub-functionNotSupported[0m
[31m vcan0  7E0  [3]  [SF] ln: 2    data: 10 79                 -  '.y'      - [SRQ] DiagnosticSessionControl[0m
[34m vcan0  7E8  [8]  [SF] ln: 3    data: 7F 10 12 00 00 00 00  -  '.......' - [NRC] sub-functionNotSupported[0m
[31m vcan0  7E0  [3]  [SF] ln: 2    data: 10 7A                 -  '.z'      - [SRQ] DiagnosticSessionControl[0m
[34m vcan0  7E8  [8]  [SF] ln: 3    data: 7F 10 12 00 00 00 00  -  '.......' - [NRC] sub-functionNotSupported[0m
[31m vcan0  7E0  [3]  [SF] ln: 2    data: 10 7B                 -  '.{'      - [SRQ] DiagnosticSessionControl[0m
[34m vcan0  7E8  [8]  [SF] ln: 3    data: 7F 10 12 00 00 00 00  -  '.......' - [NRC] sub-functionNotSupported[0m
[31m vcan0  7E0  [3]  [SF] ln: 2    data: 10 7C                 -  '.|'      - [SRQ] DiagnosticSessionControl[0m
[34m vcan0  7E8  [8]  [SF] ln: 3    data: 7F 10 12 00 00 00 00  -  '.......' - [NRC] sub-functionNotSupported[0m
[31m vcan0  7E0  [3]  [SF] ln: 2    data: 10 7D                 -  '.}'      - [SRQ] DiagnosticSessionControl[0m
[34m vcan0  7E8  [8]  [SF] ln: 3    data: 7F 10 12 00 00 00 00  -  '.......' - [NRC] sub-functionNotSupported[0m
[31m vcan0  7E0  [3]  [SF] ln: 2    data: 10 7E                 -  '.~'      - [SRQ] DiagnosticSessionControl[0m
[34m vcan0  7E8  [8]  [SF] ln: 3    data: 7F 10 12 00 00 00 00  -  '.......' - [NRC] sub-functionNotSupported[0m
[31m vcan0  7E0  [3]  [SF] ln: 2    data: 10 7F                 -  '..'      - [SRQ] DiagnosticSessionControl[0m
[34m vcan0  7E8  [8]  [SF] ln: 3    data: 7F 10 12 00 00 00 00  -  '.......' - [NRC] sub-functionNotSupported[0m
[31m vcan0  7E0  [3]  [SF] ln: 2    data: 10 80                 -  '..'      - [SRQ] DiagnosticSessionControl[0m
[34m vcan0  7E8  [8]  [SF] ln: 3    data: 7F 10 12 00 00 00 00  -  '.......' - [NRC] sub-functionNotSupported[0m
[31m vcan0  7E0  [3]  [SF] ln: 2    data: 10 81                 -  '..'      - [SRQ] DiagnosticSessionControl[0m
[34m vcan0  7E8  [8]  [SF] ln: 3    data: 7F 10 12 00 00 00 00  -  '.......' - [NRC] sub-functionNotSupported[0m
[31m vcan0  7E0  [3]  [SF] ln: 2    data: 10 82                 -  '..'      - [SRQ] DiagnosticSessionControl[0m
[34m vcan0  7E8  [8]  [SF] ln: 3    data: 7F 10 12 00 00 00 00  -  '.......' - [NRC] sub-functionNotSupported[0m
[31m vcan0  7E0  [3]  [SF] ln: 2    data: 10 83                 -  '..'      - [SRQ] DiagnosticSessionControl[0m
[34m vcan0  7E8  [8]  [SF] ln: 3    data: 7F 10 12 00 00 00 00  -  '.......' - [NRC] sub-functionNotSupported[0m
[31m vcan0  7E0  [3]  [SF] ln: 2    data: 10 84                 -  '..'      - [SRQ] DiagnosticSessionControl[0m
[34m vcan0  7E8  [8]  [SF] ln: 3    data: 7F 10 12 00 00 00 00  -  '.......' - [NRC] sub-functionNotSupported[0m
[31m vcan0  7E0  [3]  [SF] ln: 2    data: 10 85                 -  '..'      - [SRQ] DiagnosticSessionControl[0m
[34m vcan0  7E8  [8]  [SF] ln: 3    data: 7F 10 12 00 00 00 00  -  '.......' - [NRC] sub-functionNotSupported[0m
[31m vcan0  7E0  [3]  [SF] ln: 2    data: 10 86                 -  '..'      - [SRQ] DiagnosticSessionControl[0m
[34m vcan0  7E8  [8]  [SF] ln: 3    data: 7F 10 12 00 00 00 00  -  '.......' - [NRC] sub-functionNotSupported[0m
[31m vcan0  7E0  [3]  [SF] ln: 2    data: 10 87                 -  '..'      - [SRQ] DiagnosticSessionControl[0m
[34m vcan0  7E8  [8]  [SF] ln: 3    data: 7F 10 12 00 00 00 00  -  '.......' - [NRC] sub-functionNotSupported[0m
[31m vcan0  7E0  [3]  [SF] ln: 2    data: 10 88                 -  '..'      - [SRQ] DiagnosticSessionControl[0m
[34m vcan0  7E8  [8]  [SF] ln: 3    data: 7F 10 12 00 00 00 00  -  '.......' - [NRC] sub-functionNotSupported[0m
[31m vcan0  7E0  [3]  [SF] ln: 2    data: 10 89                 -  '..'      - [SRQ] DiagnosticSessionControl[0m
[34m vcan0  7E8  [8]  [SF] ln: 3    data: 7F 10 12 00 00 00 00  -  '.......' - [NRC] sub-functionNotSupported[0m
[31m vcan0  7E0  [3]  [SF] ln: 2    data: 10 8A                 -  '..'      - [SRQ] DiagnosticSessionControl[0m
[34m vcan0  7E8  [8]  [SF] ln: 3    data: 7F 10 12 00 00 00 00  -  '.......' - [NRC] sub-functionNotSupported[0m
[31m vcan0  7E0  [3]  [SF] ln: 2    data: 10 8B                 -  '..'      - [SRQ] DiagnosticSessionControl[0m
[34m vcan0  7E8  [8]  [SF] ln: 3    data: 7F 10 12 00 00 00 00  -  '.......' - [NRC] sub-functionNotSupported[0m
[31m vcan0  7E0  [3]  [SF] ln: 2    data: 10 8C                 -  '..'      - [SRQ] DiagnosticSessionControl[0m
[34m vcan0  7E8  [8]  [SF] ln: 3    data: 7F 10 12 00 00 00 00  -  '.......' - [NRC] sub-functionNotSupported[0m
[31m vcan0  7E0  [3]  [SF] ln: 2    data: 10 8D                 -  '..'      - [SRQ] DiagnosticSessionControl[0m
[34m vcan0  7E8  [8]  [SF] ln: 3    data: 7F 10 12 00 00 00 00  -  '.......' - [NRC] sub-functionNotSupported[0m
[31m vcan0  7E0  [3]  [SF] ln: 2    data: 10 8E                 -  '..'      - [SRQ] DiagnosticSessionControl[0m
[34m vcan0  7E8  [8]  [SF] ln: 3    data: 7F 10 12 00 00 00 00  -  '.......' - [NRC] sub-functionNotSupported[0m
[31m vcan0  7E0  [3]  [SF] ln: 2    data: 10 8F                 -  '..'      - [SRQ] DiagnosticSessionControl[0m
[34m vcan0  7E8  [8]  [SF] ln: 3    data: 7F 10 12 00 00 00 00  -  '.......' - [NRC] sub-functionNotSupported[0m
[31m vcan0  7E0  [3]  [SF] ln: 2    data: 10 90                 -  '..'      - [SRQ] DiagnosticSessionControl[0m
[34m vcan0  7E8  [8]  [SF] ln: 3    data: 7F 10 12 00 00 00 00  -  '.......' - [NRC] sub-functionNotSupported[0m
[31m vcan0  7E0  [3]  [SF] ln: 2    data: 10 91                 -  '..'      - [SRQ] DiagnosticSessionControl[0m
[34m vcan0  7E8  [8]  [SF] ln: 3    data: 7F 10 12 00 00 00 00  -  '.......' - [NRC] sub-functionNotSupported[0m
[31m vcan0  7E0  [3]  [SF] ln: 2    data: 10 92                 -  '..'      - [SRQ] DiagnosticSessionControl[0m
[34m vcan0  7E8  [8]  [SF] ln: 3    data: 7F 10 12 00 00 00 00  -  '.......' - [NRC] sub-functionNotSupported[0m
[31m vcan0  7E0  [3]  [SF] ln: 2    data: 10 93                 -  '..'      - [SRQ] DiagnosticSessionControl[0m
[34m vcan0  7E8  [8]  [SF] ln: 3    data: 7F 10 12 00 00 00 00  -  '.......' - [NRC] sub-functionNotSupported[0m
[31m vcan0  7E0  [3]  [SF] ln: 2    data: 10 94                 -  '..'      - [SRQ] DiagnosticSessionControl[0m
[34m vcan0  7E8  [8]  [SF] ln: 3    data: 7F 10 12 00 00 00 00  -  '.......' - [NRC] sub-functionNotSupported[0m
[31m vcan0  7E0  [3]  [SF] ln: 2    data: 10 95                 -  '..'      - [SRQ] DiagnosticSessionControl[0m
[34m vcan0  7E8  [8]  [SF] ln: 3    data: 7F 10 12 00 00 00 00  -  '.......' - [NRC] sub-functionNotSupported[0m
[31m vcan0  7E0  [3]  [SF] ln: 2    data: 10 96                 -  '..'      - [SRQ] DiagnosticSessionControl[0m
[34m vcan0  7E8  [8]  [SF] ln: 3    data: 7F 10 12 00 00 00 00  -  '.......' - [NRC] sub-functionNotSupported[0m
[31m vcan0  7E0  [3]  [SF] ln: 2    data: 10 97                 -  '..'      - [SRQ] DiagnosticSessionControl[0m
[34m vcan0  7E8  [8]  [SF] ln: 3    data: 7F 10 12 00 00 00 00  -  '.......' - [NRC] sub-functionNotSupported[0m
[31m vcan0  7E0  [3]  [SF] ln: 2    data: 10 98                 -  '..'      - [SRQ] DiagnosticSessionControl[0m
[34m vcan0  7E8  [8]  [SF] ln: 3    data: 7F 10 12 00 00 00 00  -  '.......' - [NRC] sub-functionNotSupported[0m
[31m vcan0  7E0  [3]  [SF] ln: 2    data: 10 99                 -  '..'      - [SRQ] DiagnosticSessionControl[0m
[34m vcan0  7E8  [8]  [SF] ln: 3    data: 7F 10 12 00 00 00 00  -  '.......' - [NRC] sub-functionNotSupported[0m
[31m vcan0  7E0  [3]  [SF] ln: 2    data: 10 9A                 -  '..'      - [SRQ] DiagnosticSessionControl[0m
[34m vcan0  7E8  [8]  [SF] ln: 3    data: 7F 10 12 00 00 00 00  -  '.......' - [NRC] sub-functionNotSupported[0m
[31m vcan0  7E0  [3]  [SF] ln: 2    data: 10 9B                 -  '..'      - [SRQ] DiagnosticSessionControl[0m
[34m vcan0  7E8  [8]  [SF] ln: 3    data: 7F 10 12 00 00 00 00  -  '.......' - [NRC] sub-functionNotSupported[0m
[31m vcan0  7E0  [3]  [SF] ln: 2    data: 10 9C                 -  '..'      - [SRQ] DiagnosticSessionControl[0m
[34m vcan0  7E8  [8]  [SF] ln: 3    data: 7F 10 12 00 00 00 00  -  '.......' - [NRC] sub-functionNotSupported[0m
[31m vcan0  7E0  [3]  [SF] ln: 2    data: 10 9D                 -  '..'      - [SRQ] DiagnosticSessionControl[0m
[34m vcan0  7E8  [8]  [SF] ln: 3    data: 7F 10 12 00 00 00 00  -  '.......' - [NRC] sub-functionNotSupported[0m
[31m vcan0  7E0  [3]  [SF] ln: 2    data: 10 9E                 -  '..'      - [SRQ] DiagnosticSessionControl[0m
[34m vcan0  7E8  [8]  [SF] ln: 3    data: 7F 10 12 00 00 00 00  -  '.......' - [NRC] sub-functionNotSupported[0m
[31m vcan0  7E0  [3]  [SF] ln: 2    data: 10 9F                 -  '..'      - [SRQ] DiagnosticSessionControl[0m
[34m vcan0  7E8  [8]  [SF] ln: 3    data: 7F 10 12 00 00 00 00  -  '.......' - [NRC] sub-functionNotSupported[0m
[31m vcan0  7E0  [3]  [SF] ln: 2    data: 10 A0                 -  '..'      - [SRQ] DiagnosticSessionControl[0m
[34m vcan0  7E8  [8]  [SF] ln: 3    data: 7F 10 12 00 00 00 00  -  '.......' - [NRC] sub-functionNotSupported[0m
[31m vcan0  7E0  [3]  [SF] ln: 2    data: 10 A1                 -  '..'      - [SRQ] DiagnosticSessionControl[0m
[34m vcan0  7E8  [8]  [SF] ln: 3    data: 7F 10 12 00 00 00 00  -  '.......' - [NRC] sub-functionNotSupported[0m
[31m vcan0  7E0  [3]  [SF] ln: 2    data: 10 A2                 -  '..'      - [SRQ] DiagnosticSessionControl[0m
[34m vcan0  7E8  [8]  [SF] ln: 3    data: 7F 10 12 00 00 00 00  -  '.......' - [NRC] sub-functionNotSupported[0m
[31m vcan0  7E0  [3]  [SF] ln: 2    data: 10 A3                 -  '..'      - [SRQ] DiagnosticSessionControl[0m
[34m vcan0  7E8  [8]  [SF] ln: 3    data: 7F 10 12 00 00 00 00  -  '.......' - [NRC] sub-functionNotSupported[0m
[31m vcan0  7E0  [3]  [SF] ln: 2    data: 10 A4                 -  '..'      - [SRQ] DiagnosticSessionControl[0m
[34m vcan0  7E8  [8]  [SF] ln: 3    data: 7F 10 12 00 00 00 00  -  '.......' - [NRC] sub-functionNotSupported[0m
[31m vcan0  7E0  [3]  [SF] ln: 2    data: 10 A5                 -  '..'      - [SRQ] DiagnosticSessionControl[0m
[34m vcan0  7E8  [8]  [SF] ln: 3    data: 7F 10 12 00 00 00 00  -  '.......' - [NRC] sub-functionNotSupported[0m
[31m vcan0  7E0  [3]  [SF] ln: 2    data: 10 A6                 -  '..'      - [SRQ] DiagnosticSessionControl[0m
[34m vcan0  7E8  [8]  [SF] ln: 3    data: 7F 10 12 00 00 00 00  -  '.......' - [NRC] sub-functionNotSupported[0m
[31m vcan0  7E0  [3]  [SF] ln: 2    data: 10 A7                 -  '..'      - [SRQ] DiagnosticSessionControl[0m
[34m vcan0  7E8  [8]  [SF] ln: 3    data: 7F 10 12 00 00 00 00  -  '.......' - [NRC] sub-functionNotSupported[0m
[31m vcan0  7E0  [3]  [SF] ln: 2    data: 10 A8                 -  '..'      - [SRQ] DiagnosticSessionControl[0m
[34m vcan0  7E8  [8]  [SF] ln: 3    data: 7F 10 12 00 00 00 00  -  '.......' - [NRC] sub-functionNotSupported[0m
[31m vcan0  7E0  [3]  [SF] ln: 2    data: 10 A9                 -  '..'      - [SRQ] DiagnosticSessionControl[0m
[34m vcan0  7E8  [8]  [SF] ln: 3    data: 7F 10 12 00 00 00 00  -  '.......' - [NRC] sub-functionNotSupported[0m
[31m vcan0  7E0  [3]  [SF] ln: 2    data: 10 AA                 -  '..'      - [SRQ] DiagnosticSessionControl[0m
[34m vcan0  7E8  [8]  [SF] ln: 3    data: 7F 10 12 00 00 00 00  -  '.......' - [NRC] sub-functionNotSupported[0m
[31m vcan0  7E0  [3]  [SF] ln: 2    data: 10 AB                 -  '..'      - [SRQ] DiagnosticSessionControl[0m
[34m vcan0  7E8  [8]  [SF] ln: 3    data: 7F 10 12 00 00 00 00  -  '.......' - [NRC] sub-functionNotSupported[0m
[31m vcan0  7E0  [3]  [SF] ln: 2    data: 10 AC                 -  '..'      - [SRQ] DiagnosticSessionControl[0m
[34m vcan0  7E8  [8]  [SF] ln: 3    data: 7F 10 12 00 00 00 00  -  '.......' - [NRC] sub-functionNotSupported[0m
[31m vcan0  7E0  [3]  [SF] ln: 2    data: 10 AD                 -  '..'      - [SRQ] DiagnosticSessionControl[0m
[34m vcan0  7E8  [8]  [SF] ln: 3    data: 7F 10 12 00 00 00 00  -  '.......' - [NRC] sub-functionNotSupported[0m
[31m vcan0  7E0  [3]  [SF] ln: 2    data: 10 AE                 -  '..'      - [SRQ] DiagnosticSessionControl[0m
[34m vcan0  7E8  [8]  [SF] ln: 3    data: 7F 10 12 00 00 00 00  -  '.......' - [NRC] sub-functionNotSupported[0m
[31m vcan0  7E0  [3]  [SF] ln: 2    data: 10 AF                 -  '..'      - [SRQ] DiagnosticSessionControl[0m
[34m vcan0  7E8  [8]  [SF] ln: 3    data: 7F 10 12 00 00 00 00  -  '.......' - [NRC] sub-functionNotSupported[0m
[31m vcan0  7E0  [3]  [SF] ln: 2    data: 10 B0                 -  '..'      - [SRQ] DiagnosticSessionControl[0m
[34m vcan0  7E8  [8]  [SF] ln: 3    data: 7F 10 12 00 00 00 00  -  '.......' - [NRC] sub-functionNotSupported[0m
[31m vcan0  7E0  [3]  [SF] ln: 2    data: 10 B1                 -  '..'      - [SRQ] DiagnosticSessionControl[0m
[34m vcan0  7E8  [8]  [SF] ln: 3    data: 7F 10 12 00 00 00 00  -  '.......' - [NRC] sub-functionNotSupported[0m
[31m vcan0  7E0  [3]  [SF] ln: 2    data: 10 B2                 -  '..'      - [SRQ] DiagnosticSessionControl[0m
[34m vcan0  7E8  [8]  [SF] ln: 3    data: 7F 10 12 00 00 00 00  -  '.......' - [NRC] sub-functionNotSupported[0m
[31m vcan0  7E0  [3]  [SF] ln: 2    data: 10 B3                 -  '..'      - [SRQ] DiagnosticSessionControl[0m
[34m vcan0  7E8  [8]  [SF] ln: 3    data: 7F 10 12 00 00 00 00  -  '.......' - [NRC] sub-functionNotSupported[0m
[31m vcan0  7E0  [3]  [SF] ln: 2    data: 10 B4                 -  '..'      - [SRQ] DiagnosticSessionControl[0m
[34m vcan0  7E8  [8]  [SF] ln: 3    data: 7F 10 12 00 00 00 00  -  '.......' - [NRC] sub-functionNotSupported[0m
[31m vcan0  7E0  [3]  [SF] ln: 2    data: 10 B5                 -  '..'      - [SRQ] DiagnosticSessionControl[0m
[34m vcan0  7E8  [8]  [SF] ln: 3    data: 7F 10 12 00 00 00 00  -  '.......' - [NRC] sub-functionNotSupported[0m
[31m vcan0  7E0  [3]  [SF] ln: 2    data: 10 B6                 -  '..'      - [SRQ] DiagnosticSessionControl[0m
[34m vcan0  7E8  [8]  [SF] ln: 3    data: 7F 10 12 00 00 00 00  -  '.......' - [NRC] sub-functionNotSupported[0m
[31m vcan0  7E0  [3]  [SF] ln: 2    data: 10 B7                 -  '..'      - [SRQ] DiagnosticSessionControl[0m
[34m vcan0  7E8  [8]  [SF] ln: 3    data: 7F 10 12 00 00 00 00  -  '.......' - [NRC] sub-functionNotSupported[0m
[31m vcan0  7E0  [3]  [SF] ln: 2    data: 10 B8                 -  '..'      - [SRQ] DiagnosticSessionControl[0m
[34m vcan0  7E8  [8]  [SF] ln: 3    data: 7F 10 12 00 00 00 00  -  '.......' - [NRC] sub-functionNotSupported[0m
[31m vcan0  7E0  [3]  [SF] ln: 2    data: 10 B9                 -  '..'      - [SRQ] DiagnosticSessionControl[0m
[34m vcan0  7E8  [8]  [SF] ln: 3    data: 7F 10 12 00 00 00 00  -  '.......' - [NRC] sub-functionNotSupported[0m
[31m vcan0  7E0  [3]  [SF] ln: 2    data: 10 BA                 -  '..'      - [SRQ] DiagnosticSessionControl[0m
[34m vcan0  7E8  [8]  [SF] ln: 3    data: 7F 10 12 00 00 00 00  -  '.......' - [NRC] sub-functionNotSupported[0m
[31m vcan0  7E0  [3]  [SF] ln: 2    data: 10 BB                 -  '..'      - [SRQ] DiagnosticSessionControl[0m
[34m vcan0  7E8  [8]  [SF] ln: 3    data: 7F 10 12 00 00 00 00  -  '.......' - [NRC] sub-functionNotSupported[0m
[31m vcan0  7E0  [3]  [SF] ln: 2    data: 10 BC                 -  '..'      - [SRQ] DiagnosticSessionControl[0m
[34m vcan0  7E8  [8]  [SF] ln: 3    data: 7F 10 12 00 00 00 00  -  '.......' - [NRC] sub-functionNotSupported[0m
[31m vcan0  7E0  [3]  [SF] ln: 2    data: 10 BD                 -  '..'      - [SRQ] DiagnosticSessionControl[0m
[34m vcan0  7E8  [8]  [SF] ln: 3    data: 7F 10 12 00 00 00 00  -  '.......' - [NRC] sub-functionNotSupported[0m
[31m vcan0  7E0  [3]  [SF] ln: 2    data: 10 BE                 -  '..'      - [SRQ] DiagnosticSessionControl[0m
[34m vcan0  7E8  [8]  [SF] ln: 3    data: 7F 10 12 00 00 00 00  -  '.......' - [NRC] sub-functionNotSupported[0m
[31m vcan0  7E0  [3]  [SF] ln: 2    data: 10 BF                 -  '..'      - [SRQ] DiagnosticSessionControl[0m
[34m vcan0  7E8  [8]  [SF] ln: 3    data: 7F 10 12 00 00 00 00  -  '.......' - [NRC] sub-functionNotSupported[0m
[31m vcan0  7E0  [3]  [SF] ln: 2    data: 10 C0                 -  '..'      - [SRQ] DiagnosticSessionControl[0m
[34m vcan0  7E8  [8]  [SF] ln: 3    data: 7F 10 12 00 00 00 00  -  '.......' - [NRC] sub-functionNotSupported[0m
[31m vcan0  7E0  [3]  [SF] ln: 2    data: 10 C1                 -  '..'      - [SRQ] DiagnosticSessionControl[0m
[34m vcan0  7E8  [8]  [SF] ln: 3    data: 7F 10 12 00 00 00 00  -  '.......' - [NRC] sub-functionNotSupported[0m
[31m vcan0  7E0  [3]  [SF] ln: 2    data: 10 C2                 -  '..'      - [SRQ] DiagnosticSessionControl[0m
[34m vcan0  7E8  [8]  [SF] ln: 3    data: 7F 10 12 00 00 00 00  -  '.......' - [NRC] sub-functionNotSupported[0m
[31m vcan0  7E0  [3]  [SF] ln: 2    data: 10 C3                 -  '..'      - [SRQ] DiagnosticSessionControl[0m
[34m vcan0  7E8  [8]  [SF] ln: 3    data: 7F 10 12 00 00 00 00  -  '.......' - [NRC] sub-functionNotSupported[0m
[31m vcan0  7E0  [3]  [SF] ln: 2    data: 10 C4                 -  '..'      - [SRQ] DiagnosticSessionControl[0m
[34m vcan0  7E8  [8]  [SF] ln: 3    data: 7F 10 12 00 00 00 00  -  '.......' - [NRC] sub-functionNotSupported[0m
[31m vcan0  7E0  [3]  [SF] ln: 2    data: 10 C5                 -  '..'      - [SRQ] DiagnosticSessionControl[0m
[34m vcan0  7E8  [8]  [SF] ln: 3    data: 7F 10 12 00 00 00 00  -  '.......' - [NRC] sub-functionNotSupported[0m
[31m vcan0  7E0  [3]  [SF] ln: 2    data: 10 C6                 -  '..'      - [SRQ] DiagnosticSessionControl[0m
[34m vcan0  7E8  [8]  [SF] ln: 3    data: 7F 10 12 00 00 00 00  -  '.......' - [NRC] sub-functionNotSupported[0m
[31m vcan0  7E0  [3]  [SF] ln: 2    data: 10 C7                 -  '..'      - [SRQ] DiagnosticSessionControl[0m
[34m vcan0  7E8  [8]  [SF] ln: 3    data: 7F 10 12 00 00 00 00  -  '.......' - [NRC] sub-functionNotSupported[0m
[31m vcan0  7E0  [3]  [SF] ln: 2    data: 10 C8                 -  '..'      - [SRQ] DiagnosticSessionControl[0m
[34m vcan0  7E8  [8]  [SF] ln: 3    data: 7F 10 12 00 00 00 00  -  '.......' - [NRC] sub-functionNotSupported[0m
[31m vcan0  7E0  [3]  [SF] ln: 2    data: 10 C9                 -  '..'      - [SRQ] DiagnosticSessionControl[0m
[34m vcan0  7E8  [8]  [SF] ln: 3    data: 7F 10 12 00 00 00 00  -  '.......' - [NRC] sub-functionNotSupported[0m
[31m vcan0  7E0  [3]  [SF] ln: 2    data: 10 CA                 -  '..'      - [SRQ] DiagnosticSessionControl[0m
[34m vcan0  7E8  [8]  [SF] ln: 3    data: 7F 10 12 00 00 00 00  -  '.......' - [NRC] sub-functionNotSupported[0m
[31m vcan0  7E0  [3]  [SF] ln: 2    data: 10 CB                 -  '..'      - [SRQ] DiagnosticSessionControl[0m
[34m vcan0  7E8  [8]  [SF] ln: 3    data: 7F 10 12 00 00 00 00  -  '.......' - [NRC] sub-functionNotSupported[0m
[31m vcan0  7E0  [3]  [SF] ln: 2    data: 10 CC                 -  '..'      - [SRQ] DiagnosticSessionControl[0m
[34m vcan0  7E8  [8]  [SF] ln: 3    data: 7F 10 12 00 00 00 00  -  '.......' - [NRC] sub-functionNotSupported[0m
[31m vcan0  7E0  [3]  [SF] ln: 2    data: 10 CD                 -  '..'      - [SRQ] DiagnosticSessionControl[0m
[34m vcan0  7E8  [8]  [SF] ln: 3    data: 7F 10 12 00 00 00 00  -  '.......' - [NRC] sub-functionNotSupported[0m
[31m vcan0  7E0  [3]  [SF] ln: 2    data: 10 CE                 -  '..'      - [SRQ] DiagnosticSessionControl[0m
[34m vcan0  7E8  [8]  [SF] ln: 3    data: 7F 10 12 00 00 00 00  -  '.......' - [NRC] sub-functionNotSupported[0m
[31m vcan0  7E0  [3]  [SF] ln: 2    data: 10 CF                 -  '..'      - [SRQ] DiagnosticSessionControl[0m
[34m vcan0  7E8  [8]  [SF] ln: 3    data: 7F 10 12 00 00 00 00  -  '.......' - [NRC] sub-functionNotSupported[0m
[31m vcan0  7E0  [3]  [SF] ln: 2    data: 10 D0                 -  '..'      - [SRQ] DiagnosticSessionControl[0m
[34m vcan0  7E8  [8]  [SF] ln: 3    data: 7F 10 12 00 00 00 00  -  '.......' - [NRC] sub-functionNotSupported[0m
[31m vcan0  7E0  [3]  [SF] ln: 2    data: 10 D1                 -  '..'      - [SRQ] DiagnosticSessionControl[0m
[34m vcan0  7E8  [8]  [SF] ln: 3    data: 7F 10 12 00 00 00 00  -  '.......' - [NRC] sub-functionNotSupported[0m
[31m vcan0  7E0  [3]  [SF] ln: 2    data: 10 D2                 -  '..'      - [SRQ] DiagnosticSessionControl[0m
[34m vcan0  7E8  [8]  [SF] ln: 3    data: 7F 10 12 00 00 00 00  -  '.......' - [NRC] sub-functionNotSupported[0m
[31m vcan0  7E0  [3]  [SF] ln: 2    data: 10 D3                 -  '..'      - [SRQ] DiagnosticSessionControl[0m
[34m vcan0  7E8  [8]  [SF] ln: 3    data: 7F 10 12 00 00 00 00  -  '.......' - [NRC] sub-functionNotSupported[0m
[31m vcan0  7E0  [3]  [SF] ln: 2    data: 10 D4                 -  '..'      - [SRQ] DiagnosticSessionControl[0m
[34m vcan0  7E8  [8]  [SF] ln: 3    data: 7F 10 12 00 00 00 00  -  '.......' - [NRC] sub-functionNotSupported[0m
[31m vcan0  7E0  [3]  [SF] ln: 2    data: 10 D5                 -  '..'      - [SRQ] DiagnosticSessionControl[0m
[34m vcan0  7E8  [8]  [SF] ln: 3    data: 7F 10 12 00 00 00 00  -  '.......' - [NRC] sub-functionNotSupported[0m
[31m vcan0  7E0  [3]  [SF] ln: 2    data: 10 D6                 -  '..'      - [SRQ] DiagnosticSessionControl[0m
[34m vcan0  7E8  [8]  [SF] ln: 3    data: 7F 10 12 00 00 00 00  -  '.......' - [NRC] sub-functionNotSupported[0m
[31m vcan0  7E0  [3]  [SF] ln: 2    data: 10 D7                 -  '..'      - [SRQ] DiagnosticSessionControl[0m
[34m vcan0  7E8  [8]  [SF] ln: 3    data: 7F 10 12 00 00 00 00  -  '.......' - [NRC] sub-functionNotSupported[0m
[31m vcan0  7E0  [3]  [SF] ln: 2    data: 10 D8                 -  '..'      - [SRQ] DiagnosticSessionControl[0m
[34m vcan0  7E8  [8]  [SF] ln: 3    data: 7F 10 12 00 00 00 00  -  '.......' - [NRC] sub-functionNotSupported[0m
[31m vcan0  7E0  [3]  [SF] ln: 2    data: 10 D9                 -  '..'      - [SRQ] DiagnosticSessionControl[0m
[34m vcan0  7E8  [8]  [SF] ln: 3    data: 7F 10 12 00 00 00 00  -  '.......' - [NRC] sub-functionNotSupported[0m
[31m vcan0  7E0  [3]  [SF] ln: 2    data: 10 DA                 -  '..'      - [SRQ] DiagnosticSessionControl[0m
[34m vcan0  7E8  [8]  [SF] ln: 3    data: 7F 10 12 00 00 00 00  -  '.......' - [NRC] sub-functionNotSupported[0m
[31m vcan0  7E0  [3]  [SF] ln: 2    data: 10 DB                 -  '..'      - [SRQ] DiagnosticSessionControl[0m
[34m vcan0  7E8  [8]  [SF] ln: 3    data: 7F 10 12 00 00 00 00  -  '.......' - [NRC] sub-functionNotSupported[0m
[31m vcan0  7E0  [3]  [SF] ln: 2    data: 10 DC                 -  '..'      - [SRQ] DiagnosticSessionControl[0m
[34m vcan0  7E8  [8]  [SF] ln: 3    data: 7F 10 12 00 00 00 00  -  '.......' - [NRC] sub-functionNotSupported[0m
[31m vcan0  7E0  [3]  [SF] ln: 2    data: 10 DD                 -  '..'      - [SRQ] DiagnosticSessionControl[0m
[34m vcan0  7E8  [8]  [SF] ln: 3    data: 7F 10 12 00 00 00 00  -  '.......' - [NRC] sub-functionNotSupported[0m
[31m vcan0  7E0  [3]  [SF] ln: 2    data: 10 DE                 -  '..'      - [SRQ] DiagnosticSessionControl[0m
[34m vcan0  7E8  [8]  [SF] ln: 3    data: 7F 10 12 00 00 00 00  -  '.......' - [NRC] sub-functionNotSupported[0m
[31m vcan0  7E0  [3]  [SF] ln: 2    data: 10 DF                 -  '..'      - [SRQ] DiagnosticSessionControl[0m
[34m vcan0  7E8  [8]  [SF] ln: 3    data: 7F 10 12 00 00 00 00  -  '.......' - [NRC] sub-functionNotSupported[0m
[31m vcan0  7E0  [3]  [SF] ln: 2    data: 10 E0                 -  '..'      - [SRQ] DiagnosticSessionControl[0m
[34m vcan0  7E8  [8]  [SF] ln: 3    data: 7F 10 12 00 00 00 00  -  '.......' - [NRC] sub-functionNotSupported[0m
[31m vcan0  7E0  [3]  [SF] ln: 2    data: 10 E1                 -  '..'      - [SRQ] DiagnosticSessionControl[0m
[34m vcan0  7E8  [8]  [SF] ln: 3    data: 7F 10 12 00 00 00 00  -  '.......' - [NRC] sub-functionNotSupported[0m
[31m vcan0  7E0  [3]  [SF] ln: 2    data: 10 E2                 -  '..'      - [SRQ] DiagnosticSessionControl[0m
[34m vcan0  7E8  [8]  [SF] ln: 3    data: 7F 10 12 00 00 00 00  -  '.......' - [NRC] sub-functionNotSupported[0m
[31m vcan0  7E0  [3]  [SF] ln: 2    data: 10 E3                 -  '..'      - [SRQ] DiagnosticSessionControl[0m
[34m vcan0  7E8  [8]  [SF] ln: 3    data: 7F 10 12 00 00 00 00  -  '.......' - [NRC] sub-functionNotSupported[0m
[31m vcan0  7E0  [3]  [SF] ln: 2    data: 10 E4                 -  '..'      - [SRQ] DiagnosticSessionControl[0m
[34m vcan0  7E8  [8]  [SF] ln: 3    data: 7F 10 12 00 00 00 00  -  '.......' - [NRC] sub-functionNotSupported[0m
[31m vcan0  7E0  [3]  [SF] ln: 2    data: 10 E5                 -  '..'      - [SRQ] DiagnosticSessionControl[0m
[34m vcan0  7E8  [8]  [SF] ln: 3    data: 7F 10 12 00 00 00 00  -  '.......' - [NRC] sub-functionNotSupported[0m
[31m vcan0  7E0  [3]  [SF] ln: 2    data: 10 E6                 -  '..'      - [SRQ] DiagnosticSessionControl[0m
[34m vcan0  7E8  [8]  [SF] ln: 3    data: 7F 10 12 00 00 00 00  -  '.......' - [NRC] sub-functionNotSupported[0m
[31m vcan0  7E0  [3]  [SF] ln: 2    data: 10 E7                 -  '..'      - [SRQ] DiagnosticSessionControl[0m
[34m vcan0  7E8  [8]  [SF] ln: 3    data: 7F 10 12 00 00 00 00  -  '.......' - [NRC] sub-functionNotSupported[0m
[31m vcan0  7E0  [3]  [SF] ln: 2    data: 10 E8                 -  '..'      - [SRQ] DiagnosticSessionControl[0m
[34m vcan0  7E8  [8]  [SF] ln: 3    data: 7F 10 12 00 00 00 00  -  '.......' - [NRC] sub-functionNotSupported[0m
[31m vcan0  7E0  [3]  [SF] ln: 2    data: 10 E9                 -  '..'      - [SRQ] DiagnosticSessionControl[0m
[34m vcan0  7E8  [8]  [SF] ln: 3    data: 7F 10 12 00 00 00 00  -  '.......' - [NRC] sub-functionNotSupported[0m
[31m vcan0  7E0  [3]  [SF] ln: 2    data: 10 EA                 -  '..'      - [SRQ] DiagnosticSessionControl[0m
[34m vcan0  7E8  [8]  [SF] ln: 3    data: 7F 10 12 00 00 00 00  -  '.......' - [NRC] sub-functionNotSupported[0m
[31m vcan0  7E0  [3]  [SF] ln: 2    data: 10 EB                 -  '..'      - [SRQ] DiagnosticSessionControl[0m
[34m vcan0  7E8  [8]  [SF] ln: 3    data: 7F 10 12 00 00 00 00  -  '.......' - [NRC] sub-functionNotSupported[0m
[31m vcan0  7E0  [3]  [SF] ln: 2    data: 10 EC                 -  '..'      - [SRQ] DiagnosticSessionControl[0m
[34m vcan0  7E8  [8]  [SF] ln: 3    data: 7F 10 12 00 00 00 00  -  '.......' - [NRC] sub-functionNotSupported[0m
[31m vcan0  7E0  [3]  [SF] ln: 2    data: 10 ED                 -  '..'      - [SRQ] DiagnosticSessionControl[0m
[34m vcan0  7E8  [8]  [SF] ln: 3    data: 7F 10 12 00 00 00 00  -  '.......' - [NRC] sub-functionNotSupported[0m
[31m vcan0  7E0  [3]  [SF] ln: 2    data: 10 EE                 -  '..'      - [SRQ] DiagnosticSessionControl[0m
[34m vcan0  7E8  [8]  [SF] ln: 3    data: 7F 10 12 00 00 00 00  -  '.......' - [NRC] sub-functionNotSupported[0m
[31m vcan0  7E0  [3]  [SF] ln: 2    data: 10 EF                 -  '..'      - [SRQ] DiagnosticSessionControl[0m
[34m vcan0  7E8  [8]  [SF] ln: 3    data: 7F 10 12 00 00 00 00  -  '.......' - [NRC] sub-functionNotSupported[0m
[31m vcan0  7E0  [3]  [SF] ln: 2    data: 10 F0                 -  '..'      - [SRQ] DiagnosticSessionControl[0m
[34m vcan0  7E8  [8]  [SF] ln: 3    data: 7F 10 12 00 00 00 00  -  '.......' - [NRC] sub-functionNotSupported[0m
[31m vcan0  7E0  [3]  [SF] ln: 2    data: 10 F1                 -  '..'      - [SRQ] DiagnosticSessionControl[0m
[34m vcan0  7E8  [8]  [SF] ln: 3    data: 7F 10 12 00 00 00 00  -  '.......' - [NRC] sub-functionNotSupported[0m
[31m vcan0  7E0  [3]  [SF] ln: 2    data: 10 F2                 -  '..'      - [SRQ] DiagnosticSessionControl[0m
[34m vcan0  7E8  [8]  [SF] ln: 3    data: 7F 10 12 00 00 00 00  -  '.......' - [NRC] sub-functionNotSupported[0m
[31m vcan0  7E0  [3]  [SF] ln: 2    data: 10 F3                 -  '..'      - [SRQ] DiagnosticSessionControl[0m
[34m vcan0  7E8  [8]  [SF] ln: 3    data: 7F 10 12 00 00 00 00  -  '.......' - [NRC] sub-functionNotSupported[0m
[31m vcan0  7E0  [3]  [SF] ln: 2    data: 10 F4                 -  '..'      - [SRQ] DiagnosticSessionControl[0m
[34m vcan0  7E8  [8]  [SF] ln: 3    data: 7F 10 12 00 00 00 00  -  '.......' - [NRC] sub-functionNotSupported[0m
[31m vcan0  7E0  [3]  [SF] ln: 2    data: 10 F5                 -  '..'      - [SRQ] DiagnosticSessionControl[0m
[34m vcan0  7E8  [8]  [SF] ln: 3    data: 7F 10 12 00 00 00 00  -  '.......' - [NRC] sub-functionNotSupported[0m
[31m vcan0  7E0  [3]  [SF] ln: 2    data: 10 F6                 -  '..'      - [SRQ] DiagnosticSessionControl[0m
[34m vcan0  7E8  [8]  [SF] ln: 3    data: 7F 10 12 00 00 00 00  -  '.......' - [NRC] sub-functionNotSupported[0m
[31m vcan0  7E0  [3]  [SF] ln: 2    data: 10 F7                 -  '..'      - [SRQ] DiagnosticSessionControl[0m
[34m vcan0  7E8  [8]  [SF] ln: 3    data: 7F 10 12 00 00 00 00  -  '.......' - [NRC] sub-functionNotSupported[0m
[31m vcan0  7E0  [3]  [SF] ln: 2    data: 10 F8                 -  '..'      - [SRQ] DiagnosticSessionControl[0m
[34m vcan0  7E8  [8]  [SF] ln: 3    data: 7F 10 12 00 00 00 00  -  '.......' - [NRC] sub-functionNotSupported[0m
[31m vcan0  7E0  [3]  [SF] ln: 2    data: 10 F9                 -  '..'      - [SRQ] DiagnosticSessionControl[0m
[34m vcan0  7E8  [8]  [SF] ln: 3    data: 7F 10 12 00 00 00 00  -  '.......' - [NRC] sub-functionNotSupported[0m
[31m vcan0  7E0  [3]  [SF] ln: 2    data: 10 FA                 -  '..'      - [SRQ] DiagnosticSessionControl[0m
[34m vcan0  7E8  [8]  [SF] ln: 3    data: 7F 10 12 00 00 00 00  -  '.......' - [NRC] sub-functionNotSupported[0m
[31m vcan0  7E0  [3]  [SF] ln: 2    data: 10 FB                 -  '..'      - [SRQ] DiagnosticSessionControl[0m
[34m vcan0  7E8  [8]  [SF] ln: 3    data: 7F 10 12 00 00 00 00  -  '.......' - [NRC] sub-functionNotSupported[0m
[31m vcan0  7E0  [3]  [SF] ln: 2    data: 10 FC                 -  '..'      - [SRQ] DiagnosticSessionControl[0m
[34m vcan0  7E8  [8]  [SF] ln: 3    data: 7F 10 12 00 00 00 00  -  '.......' - [NRC] sub-functionNotSupported[0m
[31m vcan0  7E0  [3]  [SF] ln: 2    data: 10 FD                 -  '..'      - [SRQ] DiagnosticSessionControl[0m
[34m vcan0  7E8  [8]  [SF] ln: 3    data: 7F 10 12 00 00 00 00  -  '.......' - [NRC] sub-functionNotSupported[0m
[31m vcan0  7E0  [3]  [SF] ln: 2    data: 10 FE                 -  '..'      - [SRQ] DiagnosticSessionControl[0m
[34m vcan0  7E8  [8]  [SF] ln: 3    data: 7F 10 12 00 00 00 00  -  '.......' - [NRC] sub-functionNotSupported[0m
[31m vcan0  7E0  [3]  [SF] ln: 2    data: 10 FF                 -  '..'      - [SRQ] DiagnosticSessionControl[0m
[34m vcan0  7E8  [8]  [SF] ln: 3    data: 7F 10 12 00 00 00 00  -  '.......' - [NRC] sub-functionNotSupported[0m
