[31m vcan0  7E0  [3]  [SF] ln: 2    data: 11 01                 -  '..'      - [SRQ] ECUReset[0m
[34m vcan0  7E8  [3]  [SF] ln: 2    data: 51 01                 -  'Q.'      - [PSR] ECUReset[0m
[31m vcan0  7E0  [3]  [SF] ln: 2    data: 10 03                 -  '..'      - [SRQ] DiagnosticSessionControl[0m
[34m vcan0  7E8  [4]  [SF] ln: 3    data: 7F 10 33              -  '..3'     - [NRC] securityAccessDenied[0m
[31m vcan0  7E0  [3]  [SF] ln: 2    data: 27 03                 -  ''.'      - [SRQ] SecurityAccess[0m
[34m vcan0  7E8  [7]  [SF] ln: 6    data: 67 03 64 DC 49 37     -  'g.d.I7'  - [PSR] SecurityAccess[0m
[31m vcan0  7E0  [5]  [SF] ln: 4    data: 27 04 9B 23           -  ''..#'    - [SRQ] SecurityAccess[0m
[34m vcan0  7E8  [4]  [SF] ln: 3    data: 7F 27 35              -  '.'5'     - [NRC] invalidKey[0m
[31m vcan0  7E0  [3]  [SF] ln: 2    data: 11 01                 -  '..'      - [SRQ] ECUReset[0m
[34m vcan0  7E8  [3]  [SF] ln: 2    data: 51 01                 -  'Q.'      - [PSR] ECUReset[0m
[31m vcan0  7E0  [3]  [SF] ln: 2    data: 10 03                 -  '..'      - [SRQ] DiagnosticSessionControl[0m
[34m vcan0  7E8  [4]  [SF] ln: 3    data: 7F 10 33              -  '..3'     - [NRC] securityAccessDenied[0m
[31m vcan0  7E0  [3]  [SF] ln: 2    data: 27 03                 -  ''.'      - [SRQ] SecurityAccess[0m
[34m vcan0  7E8  [7]  [SF] ln: 6    data: 67 03 64 DC 49 A3     -  'g.d.I.'  - [PSR] SecurityAccess[0m
[31m vcan0  7E0  [7]  [SF] ln: 4    data: 27 04 9B 23 FF FF     -  ''..#..'  - [SRQ] SecurityAccess[0m
[34m vcan0  7E8  [4]  [SF] ln: 3    data: 7F 27 35              -  '.'5'     - [NRC] invalidKey[0m
[31m vcan0  7E0  [3]  [SF] ln: 2    data: 11 01                 -  '..'      - [SRQ] ECUReset[0m
[34m vcan0  7E8  [3]  [SF] ln: 2    data: 51 01                 -  'Q.'      - [PSR] ECUReset[0m
[31m vcan0  7E0  [3]  [SF] ln: 2    data: 10 03                 -  '..'      - [SRQ] DiagnosticSessionControl[0m
[34m vcan0  7E8  [4]  [SF] ln: 3    data: 7F 10 33              -  '..3'     - [NRC] securityAccessDenied[0m
[31m vcan0  7E0  [3]  [SF] ln: 2    data: 27 01                 -  ''.'      - [SRQ] SecurityAccess[0m
[34m vcan0  7E8  [7]  [SF] ln: 6    data: 67 01 64 DC 49 FB     -  'g.d.I.'  - [PSR] SecurityAccess[0m
[31m vcan0  7E0  [7]  [SF] ln: 4    data: 27 02 9B 23 FF FF     -  ''..#..'  - [SRQ] SecurityAccess[0m
[34m vcan0  7E8  [4]  [SF] ln: 3    data: 7F 27 35              -  '.'5'     - [NRC] invalidKey[0m
[31m vcan0  7E0  [3]  [SF] ln: 2    data: 11 01                 -  '..'      - [SRQ] ECUReset[0m
[34m vcan0  7E8  [3]  [SF] ln: 2    data: 51 01                 -  'Q.'      - [PSR] ECUReset[0m
[31m vcan0  7E0  [3]  [SF] ln: 2    data: 10 03                 -  '..'      - [SRQ] DiagnosticSessionControl[0m
[34m vcan0  7E8  [4]  [SF] ln: 3    data: 7F 10 33              -  '..3'     - [NRC] securityAccessDenied[0m
[31m vcan0  7E0  [3]  [SF] ln: 2    data: 27 01                 -  ''.'      - [SRQ] SecurityAccess[0m
[34m vcan0  7E8  [7]  [SF] ln: 6    data: 67 01 64 DC 4A 2E     -  'g.d.J.'  - [PSR] SecurityAccess[0m
[31m vcan0  7E0  [7]  [SF] ln: 4    data: 27 02 9B 23 B5 D1     -  ''..#..'  - [SRQ] SecurityAccess[0m
[34m vcan0  7E8  [4]  [SF] ln: 3    data: 7F 27 35              -  '.'5'     - [NRC] invalidKey[0m
[31m vcan0  7E0  [3]  [SF] ln: 2    data: 11 01                 -  '..'      - [SRQ] ECUReset[0m
[34m vcan0  7E8  [3]  [SF] ln: 2    data: 51 01                 -  'Q.'      - [PSR] ECUReset[0m
[31m vcan0  7E0  [3]  [SF] ln: 2    data: 27 01                 -  ''.'      - [SRQ] SecurityAccess[0m
[34m vcan0  7E8  [7]  [SF] ln: 6    data: 67 01 64 DC 4A 65     -  'g.d.Je'  - [PSR] SecurityAccess[0m
[31m vcan0  7E0  [7]  [SF] ln: 6    data: 27 02 44 FC 6A 45     -  ''.D.jE'  - [SRQ] SecurityAccess[0m
[34m vcan0  7E8  [8]  [FF] ln: 35   data: 67 02 62 68 7B 77     -  'g.bh{w'  - [PSR] SecurityAccess[0m
[31m vcan0  7E0  [8]  [FC] FC: 0 = CTS # BS: 0 = off # STmin: 0x00 = 0 ms[0m
[34m vcan0  7E8  [8]  [CF] sn: 1    data: 68 61 74 73 5F 77 72  -  'hats_wr'[0m
[34m vcan0  7E8  [8]  [CF] sn: 2    data: 6F 6E 67 5F 77 69 74  -  'ong_wit'[0m
[34m vcan0  7E8  [8]  [CF] sn: 3    data: 68 5F 73 74 61 74 69  -  'h_stati'[0m
[34m vcan0  7E8  [8]  [CF] sn: 4    data: 63 5F 6B 65 79 73 3F  -  'c_keys?'[0m
[34m vcan0  7E8  [2]  [CF] sn: 5    data: 7D                    -  '}'[0m
[31m vcan0  7E0  [3]  [SF] ln: 2    data: 10 03                 -  '..'      - [SRQ] DiagnosticSessionControl[0m
[34m vcan0  7E8  [7]  [SF] ln: 6    data: 50 03 00 32 00 C8     -  'P..2..'  - [PSR] DiagnosticSessionControl[0m
[31m vcan0  7E0  [3]  [SF] ln: 2    data: 11 01                 -  '..'      - [SRQ] ECUReset[0m
[34m vcan0  7E8  [3]  [SF] ln: 2    data: 51 01                 -  'Q.'      - [PSR] ECUReset[0m
[31m vcan0  7E0  [3]  [SF] ln: 2    data: 27 01                 -  ''.'      - [SRQ] SecurityAccess[0m
[34m vcan0  7E8  [7]  [SF] ln: 6    data: 67 01 64 DC 4B 0B     -  'g.d.K.'  - [PSR] SecurityAccess[0m
[31m vcan0  7E0  [7]  [SF] ln: 6    data: 27 02 44 FC 6B 2B     -  ''.D.k+'  - [SRQ] SecurityAccess[0m
[34m vcan0  7E8  [8]  [FF] ln: 35   data: 67 02 62 68 7B 77     -  'g.bh{w'  - [PSR] SecurityAccess[0m
[31m vcan0  7E0  [8]  [FC] FC: 0 = CTS # BS: 0 = off # STmin: 0x00 = 0 ms[0m
[34m vcan0  7E8  [8]  [CF] sn: 1    data: 68 61 74 73 5F 77 72  -  'hats_wr'[0m
[34m vcan0  7E8  [8]  [CF] sn: 2    data: 6F 6E 67 5F 77 69 74  -  'ong_wit'[0m
[34m vcan0  7E8  [8]  [CF] sn: 3    data: 68 5F 73 74 61 74 69  -  'h_stati'[0m
[34m vcan0  7E8  [8]  [CF] sn: 4    data: 63 5F 6B 65 79 73 3F  -  'c_keys?'[0m
[34m vcan0  7E8  [2]  [CF] sn: 5    data: 7D                    -  '}'[0m
[31m vcan0  7E0  [3]  [SF] ln: 2    data: 10 03                 -  '..'      - [SRQ] DiagnosticSessionControl[0m
[34m vcan0  7E8  [7]  [SF] ln: 6    data: 50 03 00 32 00 C8     -  'P..2..'  - [PSR] DiagnosticSessionControl[0m
[31m vcan0  7E0  [3]  [SF] ln: 2    data: 10 02                 -  '..'      - [SRQ] DiagnosticSessionControl[0m
[34m vcan0  7E8  [7]  [SF] ln: 6    data: 50 02 00 32 00 C8     -  'P..2..'  - [PSR] DiagnosticSessionControl[0m
[31m vcan0  7E0  [8]  [SF] ln: 7    data: 23 14 C0 FF E0 00 80  -  '#......' - [SRQ] ReadMemoryByAddress[0m
[34m vcan0  7E8  [4]  [SF] ln: 3    data: 7F 23 31              -  '.#1'     - [NRC] requestOutOfRange[0m
[31m vcan0  7E0  [8]  [SF] ln: 7    data: 23 14 C0 FF E0 80 80  -  '#......' - [SRQ] ReadMemoryByAddress[0m
[34m vcan0  7E8  [4]  [SF] ln: 3    data: 7F 23 31              -  '.#1'     - [NRC] requestOutOfRange[0m
[31m vcan0  7E0  [8]  [SF] ln: 7    data: 23 14 C0 FF E1 00 80  -  '#......' - [SRQ] ReadMemoryByAddress[0m
[34m vcan0  7E8  [4]  [SF] ln: 3    data: 7F 23 31              -  '.#1'     - [NRC] requestOutOfRange[0m
[31m vcan0  7E0  [8]  [SF] ln: 7    data: 23 14 C0 FF E1 80 80  -  '#......' - [SRQ] ReadMemoryByAddress[0m
[34m vcan0  7E8  [4]  [SF] ln: 3    data: 7F 23 31              -  '.#1'     - [NRC] requestOutOfRange[0m
[31m vcan0  7E0  [8]  [SF] ln: 7    data: 23 14 C0 FF E2 00 80  -  '#......' - [SRQ] ReadMemoryByAddress[0m
[34m vcan0  7E8  [4]  [SF] ln: 3    data: 7F 23 31              -  '.#1'     - [NRC] requestOutOfRange[0m
[31m vcan0  7E0  [8]  [SF] ln: 7    data: 23 14 C0 FF E2 80 80  -  '#......' - [SRQ] ReadMemoryByAddress[0m
[34m vcan0  7E8  [4]  [SF] ln: 3    data: 7F 23 31              -  '.#1'     - [NRC] requestOutOfRange[0m
[31m vcan0  7E0  [8]  [SF] ln: 7    data: 23 14 C0 FF E3 00 80  -  '#......' - [SRQ] ReadMemoryByAddress[0m
[34m vcan0  7E8  [4]  [SF] ln: 3    data: 7F 23 31              -  '.#1'     - [NRC] requestOutOfRange[0m
[31m vcan0  7E0  [8]  [SF] ln: 7    data: 23 14 C0 FF E3 80 80  -  '#......' - [SRQ] ReadMemoryByAddress[0m
[34m vcan0  7E8  [4]  [SF] ln: 3    data: 7F 23 31              -  '.#1'     - [NRC] requestOutOfRange[0m
[31m vcan0  7E0  [8]  [SF] ln: 7    data: 23 14 C0 FF E4 00 80  -  '#......' - [SRQ] ReadMemoryByAddress[0m
[34m vcan0  7E8  [4]  [SF] ln: 3    data: 7F 23 31              -  '.#1'     - [NRC] requestOutOfRange[0m
[31m vcan0  7E0  [8]  [SF] ln: 7    data: 23 14 C0 FF E4 80 80  -  '#......' - [SRQ] ReadMemoryByAddress[0m
[34m vcan0  7E8  [4]  [SF] ln: 3    data: 7F 23 31              -  '.#1'     - [NRC] requestOutOfRange[0m
[31m vcan0  7E0  [8]  [SF] ln: 7    data: 23 14 C0 FF E5 00 80  -  '#......' - [SRQ] ReadMemoryByAddress[0m
[34m vcan0  7E8  [4]  [SF] ln: 3    data: 7F 23 31              -  '.#1'     - [NRC] requestOutOfRange[0m
[31m vcan0  7E0  [8]  [SF] ln: 7    data: 23 14 C0 FF E5 80 80  -  '#......' - [SRQ] ReadMemoryByAddress[0m
[34m vcan0  7E8  [4]  [SF] ln: 3    data: 7F 23 31              -  '.#1'     - [NRC] requestOutOfRange[0m
[31m vcan0  7E0  [8]  [SF] ln: 7    data: 23 14 C0 FF E6 00 80  -  '#......' - [SRQ] ReadMemoryByAddress[0m
[34m vcan0  7E8  [4]  [SF] ln: 3    data: 7F 23 31              -  '.#1'     - [NRC] requestOutOfRange[0m
[31m vcan0  7E0  [8]  [SF] ln: 7    data: 23 14 C0 FF E6 80 80  -  '#......' - [SRQ] ReadMemoryByAddress[0m
[34m vcan0  7E8  [4]  [SF] ln: 3    data: 7F 23 31              -  '.#1'     - [NRC] requestOutOfRange[0m
[31m vcan0  7E0  [8]  [SF] ln: 7    data: 23 14 C0 FF E7 00 80  -  '#......' - [SRQ] ReadMemoryByAddress[0m
[34m vcan0  7E8  [4]  [SF] ln: 3    data: 7F 23 31              -  '.#1'     - [NRC] requestOutOfRange[0m
[31m vcan0  7E0  [8]  [SF] ln: 7    data: 23 14 C0 FF E7 80 80  -  '#......' - [SRQ] ReadMemoryByAddress[0m
[34m vcan0  7E8  [4]  [SF] ln: 3    data: 7F 23 31              -  '.#1'     - [NRC] requestOutOfRange[0m
[31m vcan0  7E0  [8]  [SF] ln: 7    data: 23 14 C0 FF E8 00 80  -  '#......' - [SRQ] ReadMemoryByAddress[0m
[34m vcan0  7E8  [4]  [SF] ln: 3    data: 7F 23 31              -  '.#1'     - [NRC] requestOutOfRange[0m
[31m vcan0  7E0  [8]  [SF] ln: 7    data: 23 14 C0 FF E8 80 80  -  '#......' - [SRQ] ReadMemoryByAddress[0m
[34m vcan0  7E8  [4]  [SF] ln: 3    data: 7F 23 31              -  '.#1'     - [NRC] requestOutOfRange[0m
[31m vcan0  7E0  [8]  [SF] ln: 7    data: 23 14 C0 FF E9 00 80  -  '#......' - [SRQ] ReadMemoryByAddress[0m
[34m vcan0  7E8  [4]  [SF] ln: 3    data: 7F 23 31              -  '.#1'     - [NRC] requestOutOfRange[0m
[31m vcan0  7E0  [8]  [SF] ln: 7    data: 23 14 C0 FF E9 80 80  -  '#......' - [SRQ] ReadMemoryByAddress[0m
[34m vcan0  7E8  [4]  [SF] ln: 3    data: 7F 23 31              -  '.#1'     - [NRC] requestOutOfRange[0m
[31m vcan0  7E0  [8]  [SF] ln: 7    data: 23 14 C0 FF EA 00 80  -  '#......' - [SRQ] ReadMemoryByAddress[0m
[34m vcan0  7E8  [4]  [SF] ln: 3    data: 7F 23 31              -  '.#1'     - [NRC] requestOutOfRange[0m
[31m vcan0  7E0  [8]  [SF] ln: 7    data: 23 14 C0 FF EA 80 80  -  '#......' - [SRQ] ReadMemoryByAddress[0m
[34m vcan0  7E8  [4]  [SF] ln: 3    data: 7F 23 31              -  '.#1'     - [NRC] requestOutOfRange[0m
[31m vcan0  7E0  [8]  [SF] ln: 7    data: 23 14 C0 FF EB 00 80  -  '#......' - [SRQ] ReadMemoryByAddress[0m
[34m vcan0  7E8  [4]  [SF] ln: 3    data: 7F 23 31              -  '.#1'     - [NRC] requestOutOfRange[0m
[31m vcan0  7E0  [8]  [SF] ln: 7    data: 23 14 C0 FF EB 80 80  -  '#......' - [SRQ] ReadMemoryByAddress[0m
[34m vcan0  7E8  [4]  [SF] ln: 3    data: 7F 23 31              -  '.#1'     - [NRC] requestOutOfRange[0m
[31m vcan0  7E0  [8]  [SF] ln: 7    data: 23 14 C0 FF EC 00 80  -  '#......' - [SRQ] ReadMemoryByAddress[0m
[34m vcan0  7E8  [4]  [SF] ln: 3    data: 7F 23 31              -  '.#1'     - [NRC] requestOutOfRange[0m
[31m vcan0  7E0  [8]  [SF] ln: 7    data: 23 14 C0 FF EC 80 80  -  '#......' - [SRQ] ReadMemoryByAddress[0m
[34m vcan0  7E8  [4]  [SF] ln: 3    data: 7F 23 31              -  '.#1'     - [NRC] requestOutOfRange[0m
[31m vcan0  7E0  [8]  [SF] ln: 7    data: 23 14 C0 FF ED 00 80  -  '#......' - [SRQ] ReadMemoryByAddress[0m
[34m vcan0  7E8  [4]  [SF] ln: 3    data: 7F 23 31              -  '.#1'     - [NRC] requestOutOfRange[0m
[31m vcan0  7E0  [8]  [SF] ln: 7    data: 23 14 C0 FF ED 80 80  -  '#......' - [SRQ] ReadMemoryByAddress[0m
[34m vcan0  7E8  [4]  [SF] ln: 3    data: 7F 23 31              -  '.#1'     - [NRC] requestOutOfRange[0m
[31m vcan0  7E0  [8]  [SF] ln: 7    data: 23 14 C0 FF EE 00 80  -  '#......' - [SRQ] ReadMemoryByAddress[0m
[34m vcan0  7E8  [4]  [SF] ln: 3    data: 7F 23 31              -  '.#1'     - [NRC] requestOutOfRange[0m
[31m vcan0  7E0  [8]  [SF] ln: 7    data: 23 14 C0 FF EE 80 80  -  '#......' - [SRQ] ReadMemoryByAddress[0m
[34m vcan0  7E8  [4]  [SF] ln: 3    data: 7F 23 31              -  '.#1'     - [NRC] requestOutOfRange[0m
[31m vcan0  7E0  [8]  [SF] ln: 7    data: 23 14 C0 FF EF 00 80  -  '#......' - [SRQ] ReadMemoryByAddress[0m
[34m vcan0  7E8  [4]  [SF] ln: 3    data: 7F 23 31              -  '.#1'     - [NRC] requestOutOfRange[0m
[31m vcan0  7E0  [8]  [SF] ln: 7    data: 23 14 C0 FF EF 80 80  -  '#......' - [SRQ] ReadMemoryByAddress[0m
[34m vcan0  7E8  [4]  [SF] ln: 3    data: 7F 23 31              -  '.#1'     - [NRC] requestOutOfRange[0m
[31m vcan0  7E0  [8]  [SF] ln: 7    data: 23 14 C0 FF F0 00 80  -  '#......' - [SRQ] ReadMemoryByAddress[0m
[34m vcan0  7E8  [4]  [SF] ln: 3    data: 7F 23 31              -  '.#1'     - [NRC] requestOutOfRange[0m
[31m vcan0  7E0  [8]  [SF] ln: 7    data: 23 14 C0 FF F0 80 80  -  '#......' - [SRQ] ReadMemoryByAddress[0m
[34m vcan0  7E8  [4]  [SF] ln: 3    data: 7F 23 31              -  '.#1'     - [NRC] requestOutOfRange[0m
[31m vcan0  7E0  [8]  [SF] ln: 7    data: 23 14 C0 FF F1 00 80  -  '#......' - [SRQ] ReadMemoryByAddress[0m
[34m vcan0  7E8  [4]  [SF] ln: 3    data: 7F 23 31              -  '.#1'     - [NRC] requestOutOfRange[0m
[31m vcan0  7E0  [8]  [SF] ln: 7    data: 23 14 C0 FF F1 80 80  -  '#......' - [SRQ] ReadMemoryByAddress[0m
[34m vcan0  7E8  [4]  [SF] ln: 3    data: 7F 23 31              -  '.#1'     - [NRC] requestOutOfRange[0m
[31m vcan0  7E0  [8]  [SF] ln: 7    data: 23 14 C0 FF F2 00 80  -  '#......' - [SRQ] ReadMemoryByAddress[0m
[34m vcan0  7E8  [4]  [SF] ln: 3    data: 7F 23 31              -  '.#1'     - [NRC] requestOutOfRange[0m
[31m vcan0  7E0  [8]  [SF] ln: 7    data: 23 14 C0 FF F2 80 80  -  '#......' - [SRQ] ReadMemoryByAddress[0m
[34m vcan0  7E8  [4]  [SF] ln: 3    data: 7F 23 31              -  '.#1'     - [NRC] requestOutOfRange[0m
[31m vcan0  7E0  [8]  [SF] ln: 7    data: 23 14 C0 FF F3 00 80  -  '#......' - [SRQ] ReadMemoryByAddress[0m
[34m vcan0  7E8  [4]  [SF] ln: 3    data: 7F 23 31              -  '.#1'     - [NRC] requestOutOfRange[0m
[31m vcan0  7E0  [8]  [SF] ln: 7    data: 23 14 C0 FF F3 80 80  -  '#......' - [SRQ] ReadMemoryByAddress[0m
[34m vcan0  7E8  [4]  [SF] ln: 3    data: 7F 23 31              -  '.#1'     - [NRC] requestOutOfRange[0m
[31m vcan0  7E0  [8]  [SF] ln: 7    data: 23 14 C0 FF F4 00 80  -  '#......' - [SRQ] ReadMemoryByAddress[0m
[34m vcan0  7E8  [4]  [SF] ln: 3    data: 7F 23 31              -  '.#1'     - [NRC] requestOutOfRange[0m
[31m vcan0  7E0  [8]  [SF] ln: 7    data: 23 14 C0 FF F4 80 80  -  '#......' - [SRQ] ReadMemoryByAddress[0m
[34m vcan0  7E8  [4]  [SF] ln: 3    data: 7F 23 31              -  '.#1'     - [NRC] requestOutOfRange[0m
[31m vcan0  7E0  [8]  [SF] ln: 7    data: 23 14 C0 FF F5 00 80  -  '#......' - [SRQ] ReadMemoryByAddress[0m
[34m vcan0  7E8  [4]  [SF] ln: 3    data: 7F 23 31              -  '.#1'     - [NRC] requestOutOfRange[0m
[31m vcan0  7E0  [8]  [SF] ln: 7    data: 23 14 C0 FF F5 80 80  -  '#......' - [SRQ] ReadMemoryByAddress[0m
[34m vcan0  7E8  [4]  [SF] ln: 3    data: 7F 23 31              -  '.#1'     - [NRC] requestOutOfRange[0m
[31m vcan0  7E0  [8]  [SF] ln: 7    data: 23 14 C0 FF F6 00 80  -  '#......' - [SRQ] ReadMemoryByAddress[0m
[34m vcan0  7E8  [4]  [SF] ln: 3    data: 7F 23 31              -  '.#1'     - [NRC] requestOutOfRange[0m
[31m vcan0  7E0  [8]  [SF] ln: 7    data: 23 14 C0 FF F6 80 80  -  '#......' - [SRQ] ReadMemoryByAddress[0m
[34m vcan0  7E8  [4]  [SF] ln: 3    data: 7F 23 31              -  '.#1'     - [NRC] requestOutOfRange[0m
[31m vcan0  7E0  [8]  [SF] ln: 7    data: 23 14 C0 FF F7 00 80  -  '#......' - [SRQ] ReadMemoryByAddress[0m
[34m vcan0  7E8  [4]  [SF] ln: 3    data: 7F 23 31              -  '.#1'     - [NRC] requestOutOfRange[0m
[31m vcan0  7E0  [8]  [SF] ln: 7    data: 23 14 C0 FF F7 80 80  -  '#......' - [SRQ] ReadMemoryByAddress[0m
[34m vcan0  7E8  [4]  [SF] ln: 3    data: 7F 23 31              -  '.#1'     - [NRC] requestOutOfRange[0m
[31m vcan0  7E0  [8]  [SF] ln: 7    data: 23 14 C0 FF F8 00 80  -  '#......' - [SRQ] ReadMemoryByAddress[0m
[34m vcan0  7E8  [4]  [SF] ln: 3    data: 7F 23 31              -  '.#1'     - [NRC] requestOutOfRange[0m
[31m vcan0  7E0  [8]  [SF] ln: 7    data: 23 14 C0 FF F8 80 80  -  '#......' - [SRQ] ReadMemoryByAddress[0m
[34m vcan0  7E8  [4]  [SF] ln: 3    data: 7F 23 31              -  '.#1'     - [NRC] requestOutOfRange[0m
[31m vcan0  7E0  [8]  [SF] ln: 7    data: 23 14 C0 FF F9 00 80  -  '#......' - [SRQ] ReadMemoryByAddress[0m
[34m vcan0  7E8  [4]  [SF] ln: 3    data: 7F 23 31              -  '.#1'     - [NRC] requestOutOfRange[0m
[31m vcan0  7E0  [8]  [SF] ln: 7    data: 23 14 C0 FF F9 80 80  -  '#......' - [SRQ] ReadMemoryByAddress[0m
[34m vcan0  7E8  [4]  [SF] ln: 3    data: 7F 23 31              -  '.#1'     - [NRC] requestOutOfRange[0m
[31m vcan0  7E0  [8]  [SF] ln: 7    data: 23 14 C0 FF FA 00 80  -  '#......' - [SRQ] ReadMemoryByAddress[0m
[34m vcan0  7E8  [4]  [SF] ln: 3    data: 7F 23 31              -  '.#1'     - [NRC] requestOutOfRange[0m
[31m vcan0  7E0  [8]  [SF] ln: 7    data: 23 14 C0 FF FA 80 80  -  '#......' - [SRQ] ReadMemoryByAddress[0m
[34m vcan0  7E8  [4]  [SF] ln: 3    data: 7F 23 31              -  '.#1'     - [NRC] requestOutOfRange[0m
[31m vcan0  7E0  [8]  [SF] ln: 7    data: 23 14 C0 FF FB 00 80  -  '#......' - [SRQ] ReadMemoryByAddress[0m
[34m vcan0  7E8  [4]  [SF] ln: 3    data: 7F 23 31              -  '.#1'     - [NRC] requestOutOfRange[0m
[31m vcan0  7E0  [8]  [SF] ln: 7    data: 23 14 C0 FF FB 80 80  -  '#......' - [SRQ] ReadMemoryByAddress[0m
[34m vcan0  7E8  [4]  [SF] ln: 3    data: 7F 23 31              -  '.#1'     - [NRC] requestOutOfRange[0m
[31m vcan0  7E0  [8]  [SF] ln: 7    data: 23 14 C0 FF FC 00 80  -  '#......' - [SRQ] ReadMemoryByAddress[0m
[34m vcan0  7E8  [4]  [SF] ln: 3    data: 7F 23 31              -  '.#1'     - [NRC] requestOutOfRange[0m
[31m vcan0  7E0  [8]  [SF] ln: 7    data: 23 14 C0 FF FC 80 80  -  '#......' - [SRQ] ReadMemoryByAddress[0m
[34m vcan0  7E8  [4]  [SF] ln: 3    data: 7F 23 31              -  '.#1'     - [NRC] requestOutOfRange[0m
[31m vcan0  7E0  [8]  [SF] ln: 7    data: 23 14 C0 FF FD 00 80  -  '#......' - [SRQ] ReadMemoryByAddress[0m
[34m vcan0  7E8  [4]  [SF] ln: 3    data: 7F 23 31              -  '.#1'     - [NRC] requestOutOfRange[0m
[31m vcan0  7E0  [8]  [SF] ln: 7    data: 23 14 C0 FF FD 80 80  -  '#......' - [SRQ] ReadMemoryByAddress[0m
[34m vcan0  7E8  [4]  [SF] ln: 3    data: 7F 23 31              -  '.#1'     - [NRC] requestOutOfRange[0m
[31m vcan0  7E0  [8]  [SF] ln: 7    data: 23 14 C0 FF FE 00 80  -  '#......' - [SRQ] ReadMemoryByAddress[0m
[34m vcan0  7E8  [4]  [SF] ln: 3    data: 7F 23 31              -  '.#1'     - [NRC] requestOutOfRange[0m
[31m vcan0  7E0  [8]  [SF] ln: 7    data: 23 14 C0 FF FE 80 80  -  '#......' - [SRQ] ReadMemoryByAddress[0m
[34m vcan0  7E8  [4]  [SF] ln: 3    data: 7F 23 31              -  '.#1'     - [NRC] requestOutOfRange[0m
[31m vcan0  7E0  [8]  [SF] ln: 7    data: 23 14 C0 FF FF 00 80  -  '#......' - [SRQ] ReadMemoryByAddress[0m
[34m vcan0  7E8  [4]  [SF] ln: 3    data: 7F 23 31              -  '.#1'     - [NRC] requestOutOfRange[0m
[31m vcan0  7E0  [8]  [SF] ln: 7    data: 23 14 C0 FF FF 80 80  -  '#......' - [SRQ] ReadMemoryByAddress[0m
[34m vcan0  7E8  [4]  [SF] ln: 3    data: 7F 23 31              -  '.#1'     - [NRC] requestOutOfRange[0m
[31m vcan0  7E0  [3]  [SF] ln: 2    data: 10 01                 -  '..'      - [SRQ] DiagnosticSessionControl[0m
[34m vcan0  7E8  [7]  [SF] ln: 6    data: 50 01 00 32 00 C8     -  'P..2..'  - [PSR] DiagnosticSessionControl[0m
[31m vcan0  7E0  [8]  [SF] ln: 7    data: 23 14 C0 FF E0 00 80  -  '#......' - [SRQ] ReadMemoryByAddress[0m
[34m vcan0  7E8  [4]  [SF] ln: 3    data: 7F 23 31              -  '.#1'     - [NRC] requestOutOfRange[0m
[31m vcan0  7E0  [8]  [SF] ln: 7    data: 23 14 C0 FF E0 80 80  -  '#......' - [SRQ] ReadMemoryByAddress[0m
[34m vcan0  7E8  [4]  [SF] ln: 3    data: 7F 23 31              -  '.#1'     - [NRC] requestOutOfRange[0m
[31m vcan0  7E0  [8]  [SF] ln: 7    data: 23 14 C0 FF E1 00 80  -  '#......' - [SRQ] ReadMemoryByAddress[0m
[34m vcan0  7E8  [4]  [SF] ln: 3    data: 7F 23 31              -  '.#1'     - [NRC] requestOutOfRange[0m
[31m vcan0  7E0  [8]  [SF] ln: 7    data: 23 14 C0 FF E1 80 80  -  '#......' - [SRQ] ReadMemoryByAddress[0m
[34m vcan0  7E8  [4]  [SF] ln: 3    data: 7F 23 31              -  '.#1'     - [NRC] requestOutOfRange[0m
[31m vcan0  7E0  [8]  [SF] ln: 7    data: 23 14 C0 FF E2 00 80  -  '#......' - [SRQ] ReadMemoryByAddress[0m
[34m vcan0  7E8  [4]  [SF] ln: 3    data: 7F 23 31              -  '.#1'     - [NRC] requestOutOfRange[0m
[31m vcan0  7E0  [8]  [SF] ln: 7    data: 23 14 C0 FF E2 80 80  -  '#......' - [SRQ] ReadMemoryByAddress[0m
[34m vcan0  7E8  [4]  [SF] ln: 3    data: 7F 23 31              -  '.#1'     - [NRC] requestOutOfRange[0m
[31m vcan0  7E0  [8]  [SF] ln: 7    data: 23 14 C0 FF E3 00 80  -  '#......' - [SRQ] ReadMemoryByAddress[0m
[34m vcan0  7E8  [4]  [SF] ln: 3    data: 7F 23 31              -  '.#1'     - [NRC] requestOutOfRange[0m
[31m vcan0  7E0  [8]  [SF] ln: 7    data: 23 14 C0 FF E3 80 80  -  '#......' - [SRQ] ReadMemoryByAddress[0m
[34m vcan0  7E8  [4]  [SF] ln: 3    data: 7F 23 31              -  '.#1'     - [NRC] requestOutOfRange[0m
[31m vcan0  7E0  [8]  [SF] ln: 7    data: 23 14 C0 FF E4 00 80  -  '#......' - [SRQ] ReadMemoryByAddress[0m
[34m vcan0  7E8  [4]  [SF] ln: 3    data: 7F 23 31              -  '.#1'     - [NRC] requestOutOfRange[0m
[31m vcan0  7E0  [8]  [SF] ln: 7    data: 23 14 C0 FF E4 80 80  -  '#......' - [SRQ] ReadMemoryByAddress[0m
[34m vcan0  7E8  [4]  [SF] ln: 3    data: 7F 23 31              -  '.#1'     - [NRC] requestOutOfRange[0m
[31m vcan0  7E0  [8]  [SF] ln: 7    data: 23 14 C0 FF E5 00 80  -  '#......' - [SRQ] ReadMemoryByAddress[0m
[34m vcan0  7E8  [4]  [SF] ln: 3    data: 7F 23 31              -  '.#1'     - [NRC] requestOutOfRange[0m
[31m vcan0  7E0  [8]  [SF] ln: 7    data: 23 14 C0 FF E5 80 80  -  '#......' - [SRQ] ReadMemoryByAddress[0m
[34m vcan0  7E8  [4]  [SF] ln: 3    data: 7F 23 31              -  '.#1'     - [NRC] requestOutOfRange[0m
[31m vcan0  7E0  [8]  [SF] ln: 7    data: 23 14 C0 FF E6 00 80  -  '#......' - [SRQ] ReadMemoryByAddress[0m
[34m vcan0  7E8  [4]  [SF] ln: 3    data: 7F 23 31              -  '.#1'     - [NRC] requestOutOfRange[0m
[31m vcan0  7E0  [8]  [SF] ln: 7    data: 23 14 C0 FF E6 80 80  -  '#......' - [SRQ] ReadMemoryByAddress[0m
[34m vcan0  7E8  [4]  [SF] ln: 3    data: 7F 23 31              -  '.#1'     - [NRC] requestOutOfRange[0m
[31m vcan0  7E0  [8]  [SF] ln: 7    data: 23 14 C0 FF E7 00 80  -  '#......' - [SRQ] ReadMemoryByAddress[0m
[34m vcan0  7E8  [4]  [SF] ln: 3    data: 7F 23 31              -  '.#1'     - [NRC] requestOutOfRange[0m
[31m vcan0  7E0  [8]  [SF] ln: 7    data: 23 14 C0 FF E7 80 80  -  '#......' - [SRQ] ReadMemoryByAddress[0m
[34m vcan0  7E8  [4]  [SF] ln: 3    data: 7F 23 31              -  '.#1'     - [NRC] requestOutOfRange[0m
[31m vcan0  7E0  [8]  [SF] ln: 7    data: 23 14 C0 FF E8 00 80  -  '#......' - [SRQ] ReadMemoryByAddress[0m
[34m vcan0  7E8  [4]  [SF] ln: 3    data: 7F 23 31              -  '.#1'     - [NRC] requestOutOfRange[0m
[31m vcan0  7E0  [8]  [SF] ln: 7    data: 23 14 C0 FF E8 80 80  -  '#......' - [SRQ] ReadMemoryByAddress[0m
[34m vcan0  7E8  [4]  [SF] ln: 3    data: 7F 23 31              -  '.#1'     - [NRC] requestOutOfRange[0m
[31m vcan0  7E0  [8]  [SF] ln: 7    data: 23 14 C0 FF E9 00 80  -  '#......' - [SRQ] ReadMemoryByAddress[0m
[34m vcan0  7E8  [4]  [SF] ln: 3    data: 7F 23 31              -  '.#1'     - [NRC] requestOutOfRange[0m
[31m vcan0  7E0  [8]  [SF] ln: 7    data: 23 14 C0 FF E9 80 80  -  '#......' - [SRQ] ReadMemoryByAddress[0m
[34m vcan0  7E8  [4]  [SF] ln: 3    data: 7F 23 31              -  '.#1'     - [NRC] requestOutOfRange[0m
[31m vcan0  7E0  [8]  [SF] ln: 7    data: 23 14 C0 FF EA 00 80  -  '#......' - [SRQ] ReadMemoryByAddress[0m
