[31m vcan0  7E0  [3]  [SF] ln: 2    data: 11 01                 -  '..'      - [SRQ] ECUReset[0m
[34m vcan0  7E8  [3]  [SF] ln: 2    data: 51 01                 -  'Q.'      - [PSR] ECUReset[0m
[31m vcan0  7E0  [3]  [SF] ln: 2    data: 27 01                 -  ''.'      - [SRQ] SecurityAccess[0m
[34m vcan0  7E8  [7]  [SF] ln: 6    data: 67 01 64 DC 4C 90     -  'g.d.L.'  - [PSR] SecurityAccess[0m
[31m vcan0  7E0  [7]  [SF] ln: 6    data: 27 02 44 FC 6C B0     -  ''.D.l.'  - [SRQ] SecurityAccess[0m
[34m vcan0  7E8  [8]  [FF] ln: 35   data: 67 02 62 68 7B 77     -  'g.bh{w'  - [PSR] SecurityAccess[0m
[31m vcan0  7E0  [8]  [FC] FC: 0 = CTS # BS: 0 = off # STmin: 0x00 = 0 ms[0m
[34m vcan0  7E8  [8]  [CF] sn: 1    data: 68 61 74 73 5F 77 72  -  'hats_wr'[0m
[34m vcan0  7E8  [8]  [CF] sn: 2    data: 6F 6E 67 5F 77 69 74  -  'ong_wit'[0m
[34m vcan0  7E8  [8]  [CF] sn: 3    data: 68 5F 73 74 61 74 69  -  'h_stati'[0m
[34m vcan0  7E8  [8]  [CF] sn: 4    data: 63 5F 6B 65 79 73 3F  -  'c_keys?'[0m
[34m vcan0  7E8  [2]  [CF] sn: 5    data: 7D                    -  '}'[0m
[31m vcan0  7E0  [3]  [SF] ln: 2    data: 10 03                 -  '..'      - [SRQ] DiagnosticSessionControl[0m
[34m vcan0  7E8  [7]  [SF] ln: 6    data: 50 03 00 32 00 C8     -  'P..2..'  - [PSR] DiagnosticSessionControl[0m
[31m vcan0  7E0  [3]  [SF] ln: 2    data: 10 02                 -  '..'      - [SRQ] DiagnosticSessionControl[0m
[34m vcan0  7E8  [7]  [SF] ln: 6    data: 50 02 00 32 00 C8     -  'P..2..'  - [PSR] DiagnosticSessionControl[0m
[31m vcan0  7E0  [8]  [SF] ln: 7    data: 23 14 C0 FF E0 00 08  -  '#......' - [SRQ] ReadMemoryByAddress[0m
[34m vcan0  7E8  [4]  [SF] ln: 3    data: 7F 23 31              -  '.#1'     - [NRC] requestOutOfRange[0m
[31m vcan0  7E0  [8]  [SF] ln: 7    data: 23 14 C0 FF E0 08 08  -  '#......' - [SRQ] ReadMemoryByAddress[0m
[34m vcan0  7E8  [4]  [SF] ln: 3    data: 7F 23 31              -  '.#1'     - [NRC] requestOutOfRange[0m
[31m vcan0  7E0  [8]  [SF] ln: 7    data: 23 14 C0 FF E0 10 08  -  '#......' - [SRQ] ReadMemoryByAddress[0m
[34m vcan0  7E8  [4]  [SF] ln: 3    data: 7F 23 31              -  '.#1'     - [NRC] requestOutOfRange[0m
[31m vcan0  7E0  [8]  [SF] ln: 7    data: 23 14 C0 FF E0 18 08  -  '#......' - [SRQ] ReadMemoryByAddress[0m
[34m vcan0  7E8  [4]  [SF] ln: 3    data: 7F 23 31              -  '.#1'     - [NRC] requestOutOfRange[0m
[31m vcan0  7E0  [8]  [SF] ln: 7    data: 23 14 C0 FF E0 20 08  -  '#.... .' - [SRQ] ReadMemoryByAddress[0m
[34m vcan0  7E8  [4]  [SF] ln: 3    data: 7F 23 31              -  '.#1'     - [NRC] requestOutOfRange[0m
[31m vcan0  7E0  [8]  [SF] ln: 7    data: 23 14 C0 FF E0 28 08  -  '#....(.' - [SRQ] ReadMemoryByAddress[0m
[34m vcan0  7E8  [4]  [SF] ln: 3    data: 7F 23 31              -  '.#1'     - [NRC] requestOutOfRange[0m
[31m vcan0  7E0  [8]  [SF] ln: 7    data: 23 14 C0 FF E0 30 08  -  '#....0.' - [SRQ] ReadMemoryByAddress[0m
[34m vcan0  7E8  [4]  [SF] ln: 3    data: 7F 23 31              -  '.#1'     - [NRC] requestOutOfRange[0m
[31m vcan0  7E0  [8]  [SF] ln: 7    data: 23 14 C0 FF E0 38 08  -  '#....8.' - [SRQ] ReadMemoryByAddress[0m
[34m vcan0  7E8  [4]  [SF] ln: 3    data: 7F 23 31              -  '.#1'     - [NRC] requestOutOfRange[0m
[31m vcan0  7E0  [8]  [SF] ln: 7    data: 23 14 C0 FF E0 40 08  -  '#....@.' - [SRQ] ReadMemoryByAddress[0m
[34m vcan0  7E8  [4]  [SF] ln: 3    data: 7F 23 31              -  '.#1'     - [NRC] requestOutOfRange[0m
[31m vcan0  7E0  [8]  [SF] ln: 7    data: 23 14 C0 FF E0 48 08  -  '#....H.' - [SRQ] ReadMemoryByAddress[0m
[34m vcan0  7E8  [4]  [SF] ln: 3    data: 7F 23 31              -  '.#1'     - [NRC] requestOutOfRange[0m
[31m vcan0  7E0  [8]  [SF] ln: 7    data: 23 14 C0 FF E0 50 08  -  '#....P.' - [SRQ] ReadMemoryByAddress[0m
[34m vcan0  7E8  [4]  [SF] ln: 3    data: 7F 23 31              -  '.#1'     - [NRC] requestOutOfRange[0m
[31m vcan0  7E0  [8]  [SF] ln: 7    data: 23 14 C0 FF E0 58 08  -  '#....X.' - [SRQ] ReadMemoryByAddress[0m
[34m vcan0  7E8  [4]  [SF] ln: 3    data: 7F 23 31              -  '.#1'     - [NRC] requestOutOfRange[0m
[31m vcan0  7E0  [8]  [SF] ln: 7    data: 23 14 C0 FF E0 60 08  -  '#....`.' - [SRQ] ReadMemoryByAddress[0m
[34m vcan0  7E8  [4]  [SF] ln: 3    data: 7F 23 31              -  '.#1'     - [NRC] requestOutOfRange[0m
[31m vcan0  7E0  [8]  [SF] ln: 7    data: 23 14 C0 FF E0 68 08  -  '#....h.' - [SRQ] ReadMemoryByAddress[0m
[34m vcan0  7E8  [4]  [SF] ln: 3    data: 7F 23 31              -  '.#1'     - [NRC] requestOutOfRange[0m
[31m vcan0  7E0  [8]  [SF] ln: 7    data: 23 14 C0 FF E0 70 08  -  '#....p.' - [SRQ] ReadMemoryByAddress[0m
[34m vcan0  7E8  [4]  [SF] ln: 3    data: 7F 23 31              -  '.#1'     - [NRC] requestOutOfRange[0m
[31m vcan0  7E0  [8]  [SF] ln: 7    data: 23 14 C0 FF E0 78 08  -  '#....x.' - [SRQ] ReadMemoryByAddress[0m
[34m vcan0  7E8  [4]  [SF] ln: 3    data: 7F 23 31              -  '.#1'     - [NRC] requestOutOfRange[0m
[31m vcan0  7E0  [8]  [SF] ln: 7    data: 23 14 C0 FF E0 80 08  -  '#......' - [SRQ] ReadMemoryByAddress[0m
[34m vcan0  7E8  [4]  [SF] ln: 3    data: 7F 23 31              -  '.#1'     - [NRC] requestOutOfRange[0m
[31m vcan0  7E0  [8]  [SF] ln: 7    data: 23 14 C0 FF E0 88 08  -  '#......' - [SRQ] ReadMemoryByAddress[0m
[34m vcan0  7E8  [4]  [SF] ln: 3    data: 7F 23 31              -  '.#1'     - [NRC] requestOutOfRange[0m
[31m vcan0  7E0  [8]  [SF] ln: 7    data: 23 14 C0 FF E0 90 08  -  '#......' - [SRQ] ReadMemoryByAddress[0m
[34m vcan0  7E8  [4]  [SF] ln: 3    data: 7F 23 31              -  '.#1'     - [NRC] requestOutOfRange[0m
[31m vcan0  7E0  [8]  [SF] ln: 7    data: 23 14 C0 FF E0 98 08  -  '#......' - [SRQ] ReadMemoryByAddress[0m
[34m vcan0  7E8  [4]  [SF] ln: 3    data: 7F 23 31              -  '.#1'     - [NRC] requestOutOfRange[0m
[31m vcan0  7E0  [8]  [SF] ln: 7    data: 23 14 C0 FF E0 A0 08  -  '#......' - [SRQ] ReadMemoryByAddress[0m
[34m vcan0  7E8  [4]  [SF] ln: 3    data: 7F 23 31              -  '.#1'     - [NRC] requestOutOfRange[0m
[31m vcan0  7E0  [8]  [SF] ln: 7    data: 23 14 C0 FF E0 A8 08  -  '#......' - [SRQ] ReadMemoryByAddress[0m
[34m vcan0  7E8  [4]  [SF] ln: 3    data: 7F 23 31              -  '.#1'     - [NRC] requestOutOfRange[0m
[31m vcan0  7E0  [8]  [SF] ln: 7    data: 23 14 C0 FF E0 B0 08  -  '#......' - [SRQ] ReadMemoryByAddress[0m
[34m vcan0  7E8  [4]  [SF] ln: 3    data: 7F 23 31              -  '.#1'     - [NRC] requestOutOfRange[0m
[31m vcan0  7E0  [8]  [SF] ln: 7    data: 23 14 C0 FF E0 B8 08  -  '#......' - [SRQ] ReadMemoryByAddress[0m
[34m vcan0  7E8  [4]  [SF] ln: 3    data: 7F 23 31              -  '.#1'     - [NRC] requestOutOfRange[0m
[31m vcan0  7E0  [8]  [SF] ln: 7    data: 23 14 C0 FF E0 C0 08  -  '#......' - [SRQ] ReadMemoryByAddress[0m
[34m vcan0  7E8  [4]  [SF] ln: 3    data: 7F 23 31              -  '.#1'     - [NRC] requestOutOfRange[0m
[31m vcan0  7E0  [8]  [SF] ln: 7    data: 23 14 C0 FF E0 C8 08  -  '#......' - [SRQ] ReadMemoryByAddress[0m
[34m vcan0  7E8  [4]  [SF] ln: 3    data: 7F 23 31              -  '.#1'     - [NRC] requestOutOfRange[0m
[31m vcan0  7E0  [8]  [SF] ln: 7    data: 23 14 C0 FF E0 D0 08  -  '#......' - [SRQ] ReadMemoryByAddress[0m
[34m vcan0  7E8  [4]  [SF] ln: 3    data: 7F 23 31              -  '.#1'     - [NRC] requestOutOfRange[0m
[31m vcan0  7E0  [8]  [SF] ln: 7    data: 23 14 C0 FF E0 D8 08  -  '#......' - [SRQ] ReadMemoryByAddress[0m
[34m vcan0  7E8  [4]  [SF] ln: 3    data: 7F 23 31              -  '.#1'     - [NRC] requestOutOfRange[0m
[31m vcan0  7E0  [8]  [SF] ln: 7    data: 23 14 C0 FF E0 E0 08  -  '#......' - [SRQ] ReadMemoryByAddress[0m
[34m vcan0  7E8  [4]  [SF] ln: 3    data: 7F 23 31              -  '.#1'     - [NRC] requestOutOfRange[0m
[31m vcan0  7E0  [8]  [SF] ln: 7    data: 23 14 C0 FF E0 E8 08  -  '#......' - [SRQ] ReadMemoryByAddress[0m
[34m vcan0  7E8  [4]  [SF] ln: 3    data: 7F 23 31              -  '.#1'     - [NRC] requestOutOfRange[0m
[31m vcan0  7E0  [8]  [SF] ln: 7    data: 23 14 C0 FF E0 F0 08  -  '#......' - [SRQ] ReadMemoryByAddress[0m
[34m vcan0  7E8  [4]  [SF] ln: 3    data: 7F 23 31              -  '.#1'     - [NRC] requestOutOfRange[0m
[31m vcan0  7E0  [8]  [SF] ln: 7    data: 23 14 C0 FF E0 F8 08  -  '#......' - [SRQ] ReadMemoryByAddress[0m
[34m vcan0  7E8  [4]  [SF] ln: 3    data: 7F 23 31              -  '.#1'     - [NRC] requestOutOfRange[0m
[31m vcan0  7E0  [8]  [SF] ln: 7    data: 23 14 C0 FF E1 00 08  -  '#......' - [SRQ] ReadMemoryByAddress[0m
[34m vcan0  7E8  [4]  [SF] ln: 3    data: 7F 23 31              -  '.#1'     - [NRC] requestOutOfRange[0m
[31m vcan0  7E0  [8]  [SF] ln: 7    data: 23 14 C0 FF E1 08 08  -  '#......' - [SRQ] ReadMemoryByAddress[0m
[34m vcan0  7E8  [4]  [SF] ln: 3    data: 7F 23 31              -  '.#1'     - [NRC] requestOutOfRange[0m
[31m vcan0  7E0  [8]  [SF] ln: 7    data: 23 14 C0 FF E1 10 08  -  '#......' - [SRQ] ReadMemoryByAddress[0m
[34m vcan0  7E8  [4]  [SF] ln: 3    data: 7F 23 31              -  '.#1'     - [NRC] requestOutOfRange[0m
[31m vcan0  7E0  [8]  [SF] ln: 7    data: 23 14 C0 FF E1 18 08  -  '#......' - [SRQ] ReadMemoryByAddress[0m
[34m vcan0  7E8  [4]  [SF] ln: 3    data: 7F 23 31              -  '.#1'     - [NRC] requestOutOfRange[0m
[31m vcan0  7E0  [8]  [SF] ln: 7    data: 23 14 C0 FF E1 20 08  -  '#.... .' - [SRQ] ReadMemoryByAddress[0m
[34m vcan0  7E8  [4]  [SF] ln: 3    data: 7F 23 31              -  '.#1'     - [NRC] requestOutOfRange[0m
[31m vcan0  7E0  [8]  [SF] ln: 7    data: 23 14 C0 FF E1 28 08  -  '#....(.' - [SRQ] ReadMemoryByAddress[0m
[34m vcan0  7E8  [4]  [SF] ln: 3    data: 7F 23 31              -  '.#1'     - [NRC] requestOutOfRange[0m
[31m vcan0  7E0  [8]  [SF] ln: 7    data: 23 14 C0 FF E1 30 08  -  '#....0.' - [SRQ] ReadMemoryByAddress[0m
[34m vcan0  7E8  [4]  [SF] ln: 3    data: 7F 23 31              -  '.#1'     - [NRC] requestOutOfRange[0m
[31m vcan0  7E0  [8]  [SF] ln: 7    data: 23 14 C0 FF E1 38 08  -  '#....8.' - [SRQ] ReadMemoryByAddress[0m
[34m vcan0  7E8  [4]  [SF] ln: 3    data: 7F 23 31              -  '.#1'     - [NRC] requestOutOfRange[0m
[31m vcan0  7E0  [8]  [SF] ln: 7    data: 23 14 C0 FF E1 40 08  -  '#....@.' - [SRQ] ReadMemoryByAddress[0m
[34m vcan0  7E8  [4]  [SF] ln: 3    data: 7F 23 31              -  '.#1'     - [NRC] requestOutOfRange[0m
[31m vcan0  7E0  [8]  [SF] ln: 7    data: 23 14 C0 FF E1 48 08  -  '#....H.' - [SRQ] ReadMemoryByAddress[0m
[34m vcan0  7E8  [4]  [SF] ln: 3    data: 7F 23 31              -  '.#1'     - [NRC] requestOutOfRange[0m
[31m vcan0  7E0  [8]  [SF] ln: 7    data: 23 14 C0 FF E1 50 08  -  '#....P.' - [SRQ] ReadMemoryByAddress[0m
[34m vcan0  7E8  [4]  [SF] ln: 3    data: 7F 23 31              -  '.#1'     - [NRC] requestOutOfRange[0m
[31m vcan0  7E0  [8]  [SF] ln: 7    data: 23 14 C0 FF E1 58 08  -  '#....X.' - [SRQ] ReadMemoryByAddress[0m
[34m vcan0  7E8  [4]  [SF] ln: 3    data: 7F 23 31              -  '.#1'     - [NRC] requestOutOfRange[0m
[31m vcan0  7E0  [8]  [SF] ln: 7    data: 23 14 C0 FF E1 60 08  -  '#....`.' - [SRQ] ReadMemoryByAddress[0m
[34m vcan0  7E8  [4]  [SF] ln: 3    data: 7F 23 31              -  '.#1'     - [NRC] requestOutOfRange[0m
[31m vcan0  7E0  [8]  [SF] ln: 7    data: 23 14 C0 FF E1 68 08  -  '#....h.' - [SRQ] ReadMemoryByAddress[0m
[34m vcan0  7E8  [4]  [SF] ln: 3    data: 7F 23 31              -  '.#1'     - [NRC] requestOutOfRange[0m
[31m vcan0  7E0  [8]  [SF] ln: 7    data: 23 14 C0 FF E1 70 08  -  '#....p.' - [SRQ] ReadMemoryByAddress[0m
[34m vcan0  7E8  [4]  [SF] ln: 3    data: 7F 23 31              -  '.#1'     - [NRC] requestOutOfRange[0m
[31m vcan0  7E0  [8]  [SF] ln: 7    data: 23 14 C0 FF E1 78 08  -  '#....x.' - [SRQ] ReadMemoryByAddress[0m
[34m vcan0  7E8  [4]  [SF] ln: 3    data: 7F 23 31              -  '.#1'     - [NRC] requestOutOfRange[0m
[31m vcan0  7E0  [8]  [SF] ln: 7    data: 23 14 C0 FF E1 80 08  -  '#......' - [SRQ] ReadMemoryByAddress[0m
[34m vcan0  7E8  [4]  [SF] ln: 3    data: 7F 23 31              -  '.#1'     - [NRC] requestOutOfRange[0m
[31m vcan0  7E0  [8]  [SF] ln: 7    data: 23 14 C0 FF E1 88 08  -  '#......' - [SRQ] ReadMemoryByAddress[0m
[34m vcan0  7E8  [4]  [SF] ln: 3    data: 7F 23 31              -  '.#1'     - [NRC] requestOutOfRange[0m
[31m vcan0  7E0  [8]  [SF] ln: 7    data: 23 14 C0 FF E1 90 08  -  '#......' - [SRQ] ReadMemoryByAddress[0m
[34m vcan0  7E8  [4]  [SF] ln: 3    data: 7F 23 31              -  '.#1'     - [NRC] requestOutOfRange[0m
[31m vcan0  7E0  [8]  [SF] ln: 7    data: 23 14 C0 FF E1 98 08  -  '#......' - [SRQ] ReadMemoryByAddress[0m
[34m vcan0  7E8  [4]  [SF] ln: 3    data: 7F 23 31              -  '.#1'     - [NRC] requestOutOfRange[0m
[31m vcan0  7E0  [8]  [SF] ln: 7    data: 23 14 C0 FF E1 A0 08  -  '#......' - [SRQ] ReadMemoryByAddress[0m
[34m vcan0  7E8  [4]  [SF] ln: 3    data: 7F 23 31              -  '.#1'     - [NRC] requestOutOfRange[0m
[31m vcan0  7E0  [8]  [SF] ln: 7    data: 23 14 C0 FF E1 A8 08  -  '#......' - [SRQ] ReadMemoryByAddress[0m
[34m vcan0  7E8  [4]  [SF] ln: 3    data: 7F 23 31              -  '.#1'     - [NRC] requestOutOfRange[0m
[31m vcan0  7E0  [8]  [SF] ln: 7    data: 23 14 C0 FF E1 B0 08  -  '#......' - [SRQ] ReadMemoryByAddress[0m
[34m vcan0  7E8  [4]  [SF] ln: 3    data: 7F 23 31              -  '.#1'     - [NRC] requestOutOfRange[0m
[31m vcan0  7E0  [8]  [SF] ln: 7    data: 23 14 C0 FF E1 B8 08  -  '#......' - [SRQ] ReadMemoryByAddress[0m
[34m vcan0  7E8  [4]  [SF] ln: 3    data: 7F 23 31              -  '.#1'     - [NRC] requestOutOfRange[0m
[31m vcan0  7E0  [8]  [SF] ln: 7    data: 23 14 C0 FF E1 C0 08  -  '#......' - [SRQ] ReadMemoryByAddress[0m
[34m vcan0  7E8  [4]  [SF] ln: 3    data: 7F 23 31              -  '.#1'     - [NRC] requestOutOfRange[0m
[31m vcan0  7E0  [8]  [SF] ln: 7    data: 23 14 C0 FF E1 C8 08  -  '#......' - [SRQ] ReadMemoryByAddress[0m
[34m vcan0  7E8  [4]  [SF] ln: 3    data: 7F 23 31              -  '.#1'     - [NRC] requestOutOfRange[0m
[31m vcan0  7E0  [8]  [SF] ln: 7    data: 23 14 C0 FF E1 D0 08  -  '#......' - [SRQ] ReadMemoryByAddress[0m
[34m vcan0  7E8  [4]  [SF] ln: 3    data: 7F 23 31              -  '.#1'     - [NRC] requestOutOfRange[0m
[31m vcan0  7E0  [8]  [SF] ln: 7    data: 23 14 C0 FF E1 D8 08  -  '#......' - [SRQ] ReadMemoryByAddress[0m
[34m vcan0  7E8  [4]  [SF] ln: 3    data: 7F 23 31              -  '.#1'     - [NRC] requestOutOfRange[0m
[31m vcan0  7E0  [8]  [SF] ln: 7    data: 23 14 C0 FF E1 E0 08  -  '#......' - [SRQ] ReadMemoryByAddress[0m
[34m vcan0  7E8  [4]  [SF] ln: 3    data: 7F 23 31              -  '.#1'     - [NRC] requestOutOfRange[0m
[31m vcan0  7E0  [8]  [SF] ln: 7    data: 23 14 C0 FF E1 E8 08  -  '#......' - [SRQ] ReadMemoryByAddress[0m
[34m vcan0  7E8  [4]  [SF] ln: 3    data: 7F 23 31              -  '.#1'     - [NRC] requestOutOfRange[0m
[31m vcan0  7E0  [8]  [SF] ln: 7    data: 23 14 C0 FF E1 F0 08  -  '#......' - [SRQ] ReadMemoryByAddress[0m
[34m vcan0  7E8  [4]  [SF] ln: 3    data: 7F 23 31              -  '.#1'     - [NRC] requestOutOfRange[0m
[31m vcan0  7E0  [8]  [SF] ln: 7    data: 23 14 C0 FF E1 F8 08  -  '#......' - [SRQ] ReadMemoryByAddress[0m
[34m vcan0  7E8  [4]  [SF] ln: 3    data: 7F 23 31              -  '.#1'     - [NRC] requestOutOfRange[0m
[31m vcan0  7E0  [8]  [SF] ln: 7    data: 23 14 C0 FF E2 00 08  -  '#......' - [SRQ] ReadMemoryByAddress[0m
[34m vcan0  7E8  [4]  [SF] ln: 3    data: 7F 23 31              -  '.#1'     - [NRC] requestOutOfRange[0m
[31m vcan0  7E0  [8]  [SF] ln: 7    data: 23 14 C0 FF E2 08 08  -  '#......' - [SRQ] ReadMemoryByAddress[0m
[34m vcan0  7E8  [4]  [SF] ln: 3    data: 7F 23 31              -  '.#1'     - [NRC] requestOutOfRange[0m
[31m vcan0  7E0  [8]  [SF] ln: 7    data: 23 14 C0 FF E2 10 08  -  '#......' - [SRQ] ReadMemoryByAddress[0m
[34m vcan0  7E8  [4]  [SF] ln: 3    data: 7F 23 31              -  '.#1'     - [NRC] requestOutOfRange[0m
[31m vcan0  7E0  [8]  [SF] ln: 7    data: 23 14 C0 FF E2 18 08  -  '#......' - [SRQ] ReadMemoryByAddress[0m
[34m vcan0  7E8  [4]  [SF] ln: 3    data: 7F 23 31              -  '.#1'     - [NRC] requestOutOfRange[0m
[31m vcan0  7E0  [8]  [SF] ln: 7    data: 23 14 C0 FF E2 20 08  -  '#.... .' - [SRQ] ReadMemoryByAddress[0m
[34m vcan0  7E8  [4]  [SF] ln: 3    data: 7F 23 31              -  '.#1'     - [NRC] requestOutOfRange[0m
[31m vcan0  7E0  [8]  [SF] ln: 7    data: 23 14 C0 FF E2 28 08  -  '#....(.' - [SRQ] ReadMemoryByAddress[0m
[34m vcan0  7E8  [4]  [SF] ln: 3    data: 7F 23 31              -  '.#1'     - [NRC] requestOutOfRange[0m
[31m vcan0  7E0  [8]  [SF] ln: 7    data: 23 14 C0 FF E2 30 08  -  '#....0.' - [SRQ] ReadMemoryByAddress[0m
[34m vcan0  7E8  [4]  [SF] ln: 3    data: 7F 23 31              -  '.#1'     - [NRC] requestOutOfRange[0m
[31m vcan0  7E0  [8]  [SF] ln: 7    data: 23 14 C0 FF E2 38 08  -  '#....8.' - [SRQ] ReadMemoryByAddress[0m
[34m vcan0  7E8  [4]  [SF] ln: 3    data: 7F 23 31              -  '.#1'     - [NRC] requestOutOfRange[0m
[31m vcan0  7E0  [8]  [SF] ln: 7    data: 23 14 C0 FF E2 40 08  -  '#....@.' - [SRQ] ReadMemoryByAddress[0m
[34m vcan0  7E8  [4]  [SF] ln: 3    data: 7F 23 31              -  '.#1'     - [NRC] requestOutOfRange[0m
[31m vcan0  7E0  [8]  [SF] ln: 7    data: 23 14 C0 FF E2 48 08  -  '#....H.' - [SRQ] ReadMemoryByAddress[0m
[34m vcan0  7E8  [4]  [SF] ln: 3    data: 7F 23 31              -  '.#1'     - [NRC] requestOutOfRange[0m
[31m vcan0  7E0  [8]  [SF] ln: 7    data: 23 14 C0 FF E2 50 08  -  '#....P.' - [SRQ] ReadMemoryByAddress[0m
[34m vcan0  7E8  [4]  [SF] ln: 3    data: 7F 23 31              -  '.#1'     - [NRC] requestOutOfRange[0m
[31m vcan0  7E0  [8]  [SF] ln: 7    data: 23 14 C0 FF E2 58 08  -  '#....X.' - [SRQ] ReadMemoryByAddress[0m
[34m vcan0  7E8  [4]  [SF] ln: 3    data: 7F 23 31              -  '.#1'     - [NRC] requestOutOfRange[0m
[31m vcan0  7E0  [8]  [SF] ln: 7    data: 23 14 C0 FF E2 60 08  -  '#....`.' - [SRQ] ReadMemoryByAddress[0m
[34m vcan0  7E8  [4]  [SF] ln: 3    data: 7F 23 31              -  '.#1'     - [NRC] requestOutOfRange[0m
[31m vcan0  7E0  [8]  [SF] ln: 7    data: 23 14 C0 FF E2 68 08  -  '#....h.' - [SRQ] ReadMemoryByAddress[0m
[34m vcan0  7E8  [4]  [SF] ln: 3    data: 7F 23 31              -  '.#1'     - [NRC] requestOutOfRange[0m
[31m vcan0  7E0  [8]  [SF] ln: 7    data: 23 14 C0 FF E2 70 08  -  '#....p.' - [SRQ] ReadMemoryByAddress[0m
[34m vcan0  7E8  [4]  [SF] ln: 3    data: 7F 23 31              -  '.#1'     - [NRC] requestOutOfRange[0m
[31m vcan0  7E0  [8]  [SF] ln: 7    data: 23 14 C0 FF E2 78 08  -  '#....x.' - [SRQ] ReadMemoryByAddress[0m
[34m vcan0  7E8  [4]  [SF] ln: 3    data: 7F 23 31              -  '.#1'     - [NRC] requestOutOfRange[0m
[31m vcan0  7E0  [8]  [SF] ln: 7    data: 23 14 C0 FF E2 80 08  -  '#......' - [SRQ] ReadMemoryByAddress[0m
[34m vcan0  7E8  [4]  [SF] ln: 3    data: 7F 23 31              -  '.#1'     - [NRC] requestOutOfRange[0m
[31m vcan0  7E0  [8]  [SF] ln: 7    data: 23 14 C0 FF E2 88 08  -  '#......' - [SRQ] ReadMemoryByAddress[0m
[34m vcan0  7E8  [4]  [SF] ln: 3    data: 7F 23 31              -  '.#1'     - [NRC] requestOutOfRange[0m
[31m vcan0  7E0  [8]  [SF] ln: 7    data: 23 14 C0 FF E2 90 08  -  '#......' - [SRQ] ReadMemoryByAddress[0m
[34m vcan0  7E8  [4]  [SF] ln: 3    data: 7F 23 31              -  '.#1'     - [NRC] requestOutOfRange[0m
[31m vcan0  7E0  [8]  [SF] ln: 7    data: 23 14 C0 FF E2 98 08  -  '#......' - [SRQ] ReadMemoryByAddress[0m
[34m vcan0  7E8  [4]  [SF] ln: 3    data: 7F 23 31              -  '.#1'     - [NRC] requestOutOfRange[0m
[31m vcan0  7E0  [8]  [SF] ln: 7    data: 23 14 C0 FF E2 A0 08  -  '#......' - [SRQ] ReadMemoryByAddress[0m
[34m vcan0  7E8  [4]  [SF] ln: 3    data: 7F 23 31              -  '.#1'     - [NRC] requestOutOfRange[0m
[31m vcan0  7E0  [8]  [SF] ln: 7    data: 23 14 C0 FF E2 A8 08  -  '#......' - [SRQ] ReadMemoryByAddress[0m
[34m vcan0  7E8  [4]  [SF] ln: 3    data: 7F 23 31              -  '.#1'     - [NRC] requestOutOfRange[0m
[31m vcan0  7E0  [8]  [SF] ln: 7    data: 23 14 C0 FF E2 B0 08  -  '#......' - [SRQ] ReadMemoryByAddress[0m
[34m vcan0  7E8  [4]  [SF] ln: 3    data: 7F 23 31              -  '.#1'     - [NRC] requestOutOfRange[0m
[31m vcan0  7E0  [8]  [SF] ln: 7    data: 23 14 C0 FF E2 B8 08  -  '#......' - [SRQ] ReadMemoryByAddress[0m
[34m vcan0  7E8  [4]  [SF] ln: 3    data: 7F 23 31              -  '.#1'     - [NRC] requestOutOfRange[0m
[31m vcan0  7E0  [8]  [SF] ln: 7    data: 23 14 C0 FF E2 C0 08  -  '#......' - [SRQ] ReadMemoryByAddress[0m
[34m vcan0  7E8  [4]  [SF] ln: 3    data: 7F 23 31              -  '.#1'     - [NRC] requestOutOfRange[0m
[31m vcan0  7E0  [8]  [SF] ln: 7    data: 23 14 C0 FF E2 C8 08  -  '#......' - [SRQ] ReadMemoryByAddress[0m
[34m vcan0  7E8  [4]  [SF] ln: 3    data: 7F 23 31              -  '.#1'     - [NRC] requestOutOfRange[0m
[31m vcan0  7E0  [8]  [SF] ln: 7    data: 23 14 C0 FF E2 D0 08  -  '#......' - [SRQ] ReadMemoryByAddress[0m
[34m vcan0  7E8  [4]  [SF] ln: 3    data: 7F 23 31              -  '.#1'     - [NRC] requestOutOfRange[0m
[31m vcan0  7E0  [8]  [SF] ln: 7    data: 23 14 C0 FF E2 D8 08  -  '#......' - [SRQ] ReadMemoryByAddress[0m
[34m vcan0  7E8  [4]  [SF] ln: 3    data: 7F 23 31              -  '.#1'     - [NRC] requestOutOfRange[0m
[31m vcan0  7E0  [8]  [SF] ln: 7    data: 23 14 C0 FF E2 E0 08  -  '#......' - [SRQ] ReadMemoryByAddress[0m
[34m vcan0  7E8  [4]  [SF] ln: 3    data: 7F 23 31              -  '.#1'     - [NRC] requestOutOfRange[0m
[31m vcan0  7E0  [8]  [SF] ln: 7    data: 23 14 C0 FF E2 E8 08  -  '#......' - [SRQ] ReadMemoryByAddress[0m
[34m vcan0  7E8  [4]  [SF] ln: 3    data: 7F 23 31              -  '.#1'     - [NRC] requestOutOfRange[0m
[31m vcan0  7E0  [8]  [SF] ln: 7    data: 23 14 C0 FF E2 F0 08  -  '#......' - [SRQ] ReadMemoryByAddress[0m
[34m vcan0  7E8  [4]  [SF] ln: 3    data: 7F 23 31              -  '.#1'     - [NRC] requestOutOfRange[0m
[31m vcan0  7E0  [8]  [SF] ln: 7    data: 23 14 C0 FF E2 F8 08  -  '#......' - [SRQ] ReadMemoryByAddress[0m
[34m vcan0  7E8  [4]  [SF] ln: 3    data: 7F 23 31              -  '.#1'     - [NRC] requestOutOfRange[0m
[31m vcan0  7E0  [8]  [SF] ln: 7    data: 23 14 C0 FF E3 00 08  -  '#......' - [SRQ] ReadMemoryByAddress[0m
[34m vcan0  7E8  [4]  [SF] ln: 3    data: 7F 23 31              -  '.#1'     - [NRC] requestOutOfRange[0m
[31m vcan0  7E0  [8]  [SF] ln: 7    data: 23 14 C0 FF E3 08 08  -  '#......' - [SRQ] ReadMemoryByAddress[0m
[34m vcan0  7E8  [4]  [SF] ln: 3    data: 7F 23 31              -  '.#1'     - [NRC] requestOutOfRange[0m
[31m vcan0  7E0  [8]  [SF] ln: 7    data: 23 14 C0 FF E3 10 08  -  '#......' - [SRQ] ReadMemoryByAddress[0m
[34m vcan0  7E8  [4]  [SF] ln: 3    data: 7F 23 31              -  '.#1'     - [NRC] requestOutOfRange[0m
[31m vcan0  7E0  [8]  [SF] ln: 7    data: 23 14 C0 FF E3 18 08  -  '#......' - [SRQ] ReadMemoryByAddress[0m
[34m vcan0  7E8  [4]  [SF] ln: 3    data: 7F 23 31              -  '.#1'     - [NRC] requestOutOfRange[0m
[31m vcan0  7E0  [8]  [SF] ln: 7    data: 23 14 C0 FF E3 20 08  -  '#.... .' - [SRQ] ReadMemoryByAddress[0m
[34m vcan0  7E8  [4]  [SF] ln: 3    data: 7F 23 31              -  '.#1'     - [NRC] requestOutOfRange[0m
[31m vcan0  7E0  [8]  [SF] ln: 7    data: 23 14 C0 FF E3 28 08  -  '#....(.' - [SRQ] ReadMemoryByAddress[0m
[34m vcan0  7E8  [4]  [SF] ln: 3    data: 7F 23 31              -  '.#1'     - [NRC] requestOutOfRange[0m
[31m vcan0  7E0  [8]  [SF] ln: 7    data: 23 14 C0 FF E3 30 08  -  '#....0.' - [SRQ] ReadMemoryByAddress[0m
[34m vcan0  7E8  [4]  [SF] ln: 3    data: 7F 23 31              -  '.#1'     - [NRC] requestOutOfRange[0m
[31m vcan0  7E0  [8]  [SF] ln: 7    data: 23 14 C0 FF E3 38 08  -  '#....8.' - [SRQ] ReadMemoryByAddress[0m
[34m vcan0  7E8  [4]  [SF] ln: 3    data: 7F 23 31              -  '.#1'     - [NRC] requestOutOfRange[0m
[31m vcan0  7E0  [8]  [SF] ln: 7    data: 23 14 C0 FF E3 40 08  -  '#....@.' - [SRQ] ReadMemoryByAddress[0m
[34m vcan0  7E8  [4]  [SF] ln: 3    data: 7F 23 31              -  '.#1'     - [NRC] requestOutOfRange[0m
[31m vcan0  7E0  [8]  [SF] ln: 7    data: 23 14 C0 FF E3 48 08  -  '#....H.' - [SRQ] ReadMemoryByAddress[0m
[34m vcan0  7E8  [4]  [SF] ln: 3    data: 7F 23 31              -  '.#1'     - [NRC] requestOutOfRange[0m
[31m vcan0  7E0  [8]  [SF] ln: 7    data: 23 14 C0 FF E3 50 08  -  '#....P.' - [SRQ] ReadMemoryByAddress[0m
[34m vcan0  7E8  [4]  [SF] ln: 3    data: 7F 23 31              -  '.#1'     - [NRC] requestOutOfRange[0m
[31m vcan0  7E0  [8]  [SF] ln: 7    data: 23 14 C0 FF E3 58 08  -  '#....X.' - [SRQ] ReadMemoryByAddress[0m
[34m vcan0  7E8  [4]  [SF] ln: 3    data: 7F 23 31              -  '.#1'     - [NRC] requestOutOfRange[0m
[31m vcan0  7E0  [8]  [SF] ln: 7    data: 23 14 C0 FF E3 60 08  -  '#....`.' - [SRQ] ReadMemoryByAddress[0m
[34m vcan0  7E8  [4]  [SF] ln: 3    data: 7F 23 31              -  '.#1'     - [NRC] requestOutOfRange[0m
[31m vcan0  7E0  [8]  [SF] ln: 7    data: 23 14 C0 FF E3 68 08  -  '#....h.' - [SRQ] ReadMemoryByAddress[0m
[34m vcan0  7E8  [4]  [SF] ln: 3    data: 7F 23 31              -  '.#1'     - [NRC] requestOutOfRange[0m
[31m vcan0  7E0  [8]  [SF] ln: 7    data: 23 14 C0 FF E3 70 08  -  '#....p.' - [SRQ] ReadMemoryByAddress[0m
[34m vcan0  7E8  [4]  [SF] ln: 3    data: 7F 23 31              -  '.#1'     - [NRC] requestOutOfRange[0m
[31m vcan0  7E0  [8]  [SF] ln: 7    data: 23 14 C0 FF E3 78 08  -  '#....x.' - [SRQ] ReadMemoryByAddress[0m
[34m vcan0  7E8  [4]  [SF] ln: 3    data: 7F 23 31              -  '.#1'     - [NRC] requestOutOfRange[0m
[31m vcan0  7E0  [8]  [SF] ln: 7    data: 23 14 C0 FF E3 80 08  -  '#......' - [SRQ] ReadMemoryByAddress[0m
[34m vcan0  7E8  [4]  [SF] ln: 3    data: 7F 23 31              -  '.#1'     - [NRC] requestOutOfRange[0m
[31m vcan0  7E0  [8]  [SF] ln: 7    data: 23 14 C0 FF E3 88 08  -  '#......' - [SRQ] ReadMemoryByAddress[0m
[34m vcan0  7E8  [4]  [SF] ln: 3    data: 7F 23 31              -  '.#1'     - [NRC] requestOutOfRange[0m
[31m vcan0  7E0  [8]  [SF] ln: 7    data: 23 14 C0 FF E3 90 08  -  '#......' - [SRQ] ReadMemoryByAddress[0m
[34m vcan0  7E8  [4]  [SF] ln: 3    data: 7F 23 31              -  '.#1'     - [NRC] requestOutOfRange[0m
[31m vcan0  7E0  [8]  [SF] ln: 7    data: 23 14 C0 FF E3 98 08  -  '#......' - [SRQ] ReadMemoryByAddress[0m
[34m vcan0  7E8  [4]  [SF] ln: 3    data: 7F 23 31              -  '.#1'     - [NRC] requestOutOfRange[0m
[31m vcan0  7E0  [8]  [SF] ln: 7    data: 23 14 C0 FF E3 A0 08  -  '#......' - [SRQ] ReadMemoryByAddress[0m
[34m vcan0  7E8  [4]  [SF] ln: 3    data: 7F 23 31              -  '.#1'     - [NRC] requestOutOfRange[0m
[31m vcan0  7E0  [8]  [SF] ln: 7    data: 23 14 C0 FF E3 A8 08  -  '#......' - [SRQ] ReadMemoryByAddress[0m
[34m vcan0  7E8  [4]  [SF] ln: 3    data: 7F 23 31              -  '.#1'     - [NRC] requestOutOfRange[0m
[31m vcan0  7E0  [8]  [SF] ln: 7    data: 23 14 C0 FF E3 B0 08  -  '#......' - [SRQ] ReadMemoryByAddress[0m
[34m vcan0  7E8  [4]  [SF] ln: 3    data: 7F 23 31              -  '.#1'     - [NRC] requestOutOfRange[0m
[31m vcan0  7E0  [8]  [SF] ln: 7    data: 23 14 C0 FF E3 B8 08  -  '#......' - [SRQ] ReadMemoryByAddress[0m
[34m vcan0  7E8  [4]  [SF] ln: 3    data: 7F 23 31              -  '.#1'     - [NRC] requestOutOfRange[0m
[31m vcan0  7E0  [8]  [SF] ln: 7    data: 23 14 C0 FF E3 C0 08  -  '#......' - [SRQ] ReadMemoryByAddress[0m
[34m vcan0  7E8  [4]  [SF] ln: 3    data: 7F 23 31              -  '.#1'     - [NRC] requestOutOfRange[0m
[31m vcan0  7E0  [8]  [SF] ln: 7    data: 23 14 C0 FF E3 C8 08  -  '#......' - [SRQ] ReadMemoryByAddress[0m
[34m vcan0  7E8  [4]  [SF] ln: 3    data: 7F 23 31              -  '.#1'     - [NRC] requestOutOfRange[0m
[31m vcan0  7E0  [8]  [SF] ln: 7    data: 23 14 C0 FF E3 D0 08  -  '#......' - [SRQ] ReadMemoryByAddress[0m
[34m vcan0  7E8  [4]  [SF] ln: 3    data: 7F 23 31              -  '.#1'     - [NRC] requestOutOfRange[0m
[31m vcan0  7E0  [8]  [SF] ln: 7    data: 23 14 C0 FF E3 D8 08  -  '#......' - [SRQ] ReadMemoryByAddress[0m
[34m vcan0  7E8  [4]  [SF] ln: 3    data: 7F 23 31              -  '.#1'     - [NRC] requestOutOfRange[0m
