[31m vcan0  7E0  [3]  [SF] ln: 2    data: 11 01                 -  '..'      - [SRQ] ECUReset[0m
[34m vcan0  7E8  [8]  [SF] ln: 2    data: 51 01 00 00 00 00 00  -  'Q......' - [PSR] ECUReset[0m
[31m vcan0  7E0  [3]  [SF] ln: 2    data: 10 03                 -  '..'      - [SRQ] DiagnosticSessionControl[0m
[34m vcan0  7E8  [8]  [SF] ln: 2    data: 50 03 00 00 00 00 00  -  'P......' - [PSR] DiagnosticSessionControl[0m
[31m vcan0  7E0  [3]  [SF] ln: 2    data: 27 03                 -  ''.'      - [SRQ] SecurityAccess[0m
[34m vcan0  7E8  [8]  [SF] ln: 4    data: 67 03 C2 C6 00 00 00  -  'g......' - [PSR] SecurityAccess[0m
[31m vcan0  7E0  [5]  [SF] ln: 4    data: 27 04 3D 39           -  ''.=9'    - [SRQ] SecurityAccess[0m
[34m vcan0  7E8  [8]  [SF] ln: 2    data: 67 04 00 00 00 00 00  -  'g......' - [PSR] SecurityAccess[0m
[31m vcan0  7E0  [3]  [SF] ln: 2    data: 10 02                 -  '..'      - [SRQ] DiagnosticSessionControl[0m
[34m vcan0  7E8  [8]  [SF] ln: 2    data: 50 02 00 00 00 00 00  -  'P......' - [PSR] DiagnosticSessionControl[0m
[31m vcan0  7E0  [8]  [SF] ln: 7    data: 23 14 00 01 A0 00 10  -  '#......' - [SRQ] ReadMemoryByAddress[0m
[34m vcan0  7E8  [8]  [FF] ln: 17   data: 63 42 48 53 4D 20     -  'cBHSM '  - [PSR] ReadMemoryByAddress[0m
[31m vcan0  7E0  [3]  [FC] FC: 0 = CTS # BS: 0 = off # STmin: 0x00 = 0 ms[0m
[34m vcan0  7E8  [8]  [CF] sn: 1    data: 28 73 65 63 75 72 65  -  '(secure'[0m
[34m vcan0  7E8  [8]  [CF] sn: 2    data: 20 6D 65 6D 00 00 00  -  ' mem...'[0m
[31m vcan0  7E0  [8]  [SF] ln: 7    data: 23 14 00 01 A0 10 10  -  '#......' - [SRQ] ReadMemoryByAddress[0m
[34m vcan0  7E8  [8]  [FF] ln: 17   data: 63 6F 72 79 29 00     -  'cory).'  - [PSR] ReadMemoryByAddress[0m
[31m vcan0  7E0  [3]  [FC] FC: 0 = CTS # BS: 0 = off # STmin: 0x00 = 0 ms[0m
[34m vcan0  7E8  [8]  [CF] sn: 1    data: 00 00 00 00 00 00 00  -  '.......'[0m
[34m vcan0  7E8  [8]  [CF] sn: 2    data: 00 00 00 00 00 00 00  -  '.......'[0m
[31m vcan0  7E0  [8]  [SF] ln: 7    data: 23 14 00 01 A0 20 10  -  '#.... .' - [SRQ] ReadMemoryByAddress[0m
[34m vcan0  7E8  [8]  [FF] ln: 17   data: 63 00 00 00 00 00     -  'c.....'  - [PSR] ReadMemoryByAddress[0m
[31m vcan0  7E0  [3]  [FC] FC: 0 = CTS # BS: 0 = off # STmin: 0x00 = 0 ms[0m
[34m vcan0  7E8  [8]  [CF] sn: 1    data: 00 00 00 00 00 00 00  -  '.......'[0m
[34m vcan0  7E8  [8]  [CF] sn: 2    data: 00 00 00 00 00 00 00  -  '.......'[0m
[31m vcan0  7E0  [8]  [SF] ln: 7    data: 23 14 00 01 A0 30 10  -  '#....0.' - [SRQ] ReadMemoryByAddress[0m
[34m vcan0  7E8  [8]  [FF] ln: 17   data: 63 00 00 00 00 00     -  'c.....'  - [PSR] ReadMemoryByAddress[0m
[31m vcan0  7E0  [3]  [FC] FC: 0 = CTS # BS: 0 = off # STmin: 0x00 = 0 ms[0m
[34m vcan0  7E8  [8]  [CF] sn: 1    data: 00 00 00 00 00 00 00  -  '.......'[0m
[34m vcan0  7E8  [8]  [CF] sn: 2    data: 00 00 00 00 00 00 00  -  '.......'[0m
[31m vcan0  7E0  [8]  [SF] ln: 7    data: 23 14 00 01 A0 40 10  -  '#....@.' - [SRQ] ReadMemoryByAddress[0m
[34m vcan0  7E8  [8]  [FF] ln: 17   data: 63 00 00 00 00 00     -  'c.....'  - [PSR] ReadMemoryByAddress[0m
[31m vcan0  7E0  [3]  [FC] FC: 0 = CTS # BS: 0 = off # STmin: 0x00 = 0 ms[0m
[34m vcan0  7E8  [8]  [CF] sn: 1    data: 00 00 00 00 00 00 00  -  '.......'[0m
[34m vcan0  7E8  [8]  [CF] sn: 2    data: 00 00 00 00 00 00 00  -  '.......'[0m
[31m vcan0  7E0  [8]  [SF] ln: 7    data: 23 14 00 01 A0 50 10  -  '#....P.' - [SRQ] ReadMemoryByAddress[0m
[34m vcan0  7E8  [8]  [FF] ln: 17   data: 63 00 00 00 00 00     -  'c.....'  - [PSR] ReadMemoryByAddress[0m
[31m vcan0  7E0  [3]  [FC] FC: 0 = CTS # BS: 0 = off # STmin: 0x00 = 0 ms[0m
[34m vcan0  7E8  [8]  [CF] sn: 1    data: 00 00 00 00 00 00 00  -  '.......'[0m
[34m vcan0  7E8  [8]  [CF] sn: 2    data: 00 00 00 00 00 00 00  -  '.......'[0m
[31m vcan0  7E0  [8]  [SF] ln: 7    data: 23 14 00 01 A0 60 10  -  '#....`.' - [SRQ] ReadMemoryByAddress[0m
[34m vcan0  7E8  [8]  [FF] ln: 17   data: 63 00 00 00 00 00     -  'c.....'  - [PSR] ReadMemoryByAddress[0m
[31m vcan0  7E0  [3]  [FC] FC: 0 = CTS # BS: 0 = off # STmin: 0x00 = 0 ms[0m
[34m vcan0  7E8  [8]  [CF] sn: 1    data: 00 00 00 00 00 00 00  -  '.......'[0m
[34m vcan0  7E8  [8]  [CF] sn: 2    data: 00 00 00 00 00 00 00  -  '.......'[0m
[31m vcan0  7E0  [8]  [SF] ln: 7    data: 23 14 00 01 A0 70 10  -  '#....p.' - [SRQ] ReadMemoryByAddress[0m
[34m vcan0  7E8  [8]  [FF] ln: 17   data: 63 00 00 00 00 00     -  'c.....'  - [PSR] ReadMemoryByAddress[0m
[31m vcan0  7E0  [3]  [FC] FC: 0 = CTS # BS: 0 = off # STmin: 0x00 = 0 ms[0m
[34m vcan0  7E8  [8]  [CF] sn: 1    data: 00 00 00 00 00 00 00  -  '.......'[0m
[34m vcan0  7E8  [8]  [CF] sn: 2    data: 00 00 00 00 00 00 00  -  '.......'[0m
[31m vcan0  7E0  [8]  [SF] ln: 7    data: 23 14 00 01 A0 80 10  -  '#......' - [SRQ] ReadMemoryByAddress[0m
[34m vcan0  7E8  [8]  [FF] ln: 17   data: 63 00 00 00 00 00     -  'c.....'  - [PSR] ReadMemoryByAddress[0m
[31m vcan0  7E0  [3]  [FC] FC: 0 = CTS # BS: 0 = off # STmin: 0x00 = 0 ms[0m
[34m vcan0  7E8  [8]  [CF] sn: 1    data: 00 00 00 00 00 00 00  -  '.......'[0m
[34m vcan0  7E8  [8]  [CF] sn: 2    data: 00 00 00 00 00 00 00  -  '.......'[0m
[31m vcan0  7E0  [8]  [SF] ln: 7    data: 23 14 00 01 A0 90 10  -  '#......' - [SRQ] ReadMemoryByAddress[0m
[34m vcan0  7E8  [8]  [FF] ln: 17   data: 63 00 00 00 00 00     -  'c.....'  - [PSR] ReadMemoryByAddress[0m
[31m vcan0  7E0  [3]  [FC] FC: 0 = CTS # BS: 0 = off # STmin: 0x00 = 0 ms[0m
[34m vcan0  7E8  [8]  [CF] sn: 1    data: 00 00 00 00 00 00 00  -  '.......'[0m
[34m vcan0  7E8  [8]  [CF] sn: 2    data: 00 00 00 00 00 00 00  -  '.......'[0m
[31m vcan0  7E0  [8]  [SF] ln: 7    data: 23 14 00 01 A0 A0 10  -  '#......' - [SRQ] ReadMemoryByAddress[0m
[34m vcan0  7E8  [8]  [FF] ln: 17   data: 63 00 00 00 00 00     -  'c.....'  - [PSR] ReadMemoryByAddress[0m
[31m vcan0  7E0  [3]  [FC] FC: 0 = CTS # BS: 0 = off # STmin: 0x00 = 0 ms[0m
[34m vcan0  7E8  [8]  [CF] sn: 1    data: 00 00 00 00 00 00 00  -  '.......'[0m
[34m vcan0  7E8  [8]  [CF] sn: 2    data: 00 00 00 00 00 00 00  -  '.......'[0m
[31m vcan0  7E0  [8]  [SF] ln: 7    data: 23 14 00 01 A0 B0 10  -  '#......' - [SRQ] ReadMemoryByAddress[0m
[34m vcan0  7E8  [8]  [FF] ln: 17   data: 63 00 00 00 00 00     -  'c.....'  - [PSR] ReadMemoryByAddress[0m
[31m vcan0  7E0  [3]  [FC] FC: 0 = CTS # BS: 0 = off # STmin: 0x00 = 0 ms[0m
[34m vcan0  7E8  [8]  [CF] sn: 1    data: 00 00 00 00 00 00 00  -  '.......'[0m
[34m vcan0  7E8  [8]  [CF] sn: 2    data: 00 00 00 00 00 00 00  -  '.......'[0m
[31m vcan0  7E0  [8]  [SF] ln: 7    data: 23 14 00 01 A0 C0 10  -  '#......' - [SRQ] ReadMemoryByAddress[0m
[34m vcan0  7E8  [8]  [FF] ln: 17   data: 63 00 00 00 00 00     -  'c.....'  - [PSR] ReadMemoryByAddress[0m
[31m vcan0  7E0  [3]  [FC] FC: 0 = CTS # BS: 0 = off # STmin: 0x00 = 0 ms[0m
[34m vcan0  7E8  [8]  [CF] sn: 1    data: 00 00 00 00 00 00 00  -  '.......'[0m
[34m vcan0  7E8  [8]  [CF] sn: 2    data: 00 00 00 00 00 00 00  -  '.......'[0m
[31m vcan0  7E0  [8]  [SF] ln: 7    data: 23 14 00 01 A0 D0 10  -  '#......' - [SRQ] ReadMemoryByAddress[0m
[34m vcan0  7E8  [8]  [FF] ln: 17   data: 63 00 00 00 00 00     -  'c.....'  - [PSR] ReadMemoryByAddress[0m
[31m vcan0  7E0  [3]  [FC] FC: 0 = CTS # BS: 0 = off # STmin: 0x00 = 0 ms[0m
[34m vcan0  7E8  [8]  [CF] sn: 1    data: 00 00 00 00 00 00 00  -  '.......'[0m
[34m vcan0  7E8  [8]  [CF] sn: 2    data: 00 00 00 00 00 00 00  -  '.......'[0m
[31m vcan0  7E0  [8]  [SF] ln: 7    data: 23 14 00 01 A0 E0 10  -  '#......' - [SRQ] ReadMemoryByAddress[0m
[34m vcan0  7E8  [8]  [FF] ln: 17   data: 63 00 00 00 00 00     -  'c.....'  - [PSR] ReadMemoryByAddress[0m
[31m vcan0  7E0  [3]  [FC] FC: 0 = CTS # BS: 0 = off # STmin: 0x00 = 0 ms[0m
[34m vcan0  7E8  [8]  [CF] sn: 1    data: 00 00 00 00 00 00 00  -  '.......'[0m
[34m vcan0  7E8  [8]  [CF] sn: 2    data: 00 00 00 00 00 00 00  -  '.......'[0m
[31m vcan0  7E0  [8]  [SF] ln: 7    data: 23 14 00 01 A0 F0 10  -  '#......' - [SRQ] ReadMemoryByAddress[0m
[34m vcan0  7E8  [8]  [FF] ln: 17   data: 63 00 00 00 00 00     -  'c.....'  - [PSR] ReadMemoryByAddress[0m
[31m vcan0  7E0  [3]  [FC] FC: 0 = CTS # BS: 0 = off # STmin: 0x00 = 0 ms[0m
[34m vcan0  7E8  [8]  [CF] sn: 1    data: 00 00 00 00 00 00 00  -  '.......'[0m
[34m vcan0  7E8  [8]  [CF] sn: 2    data: 00 00 00 00 00 00 00  -  '.......'[0m
[31m vcan0  7E0  [8]  [SF] ln: 7    data: 23 14 00 01 A1 00 10  -  '#......' - [SRQ] ReadMemoryByAddress[0m
[34m vcan0  7E8  [8]  [FF] ln: 17   data: 63 00 00 00 00 00     -  'c.....'  - [PSR] ReadMemoryByAddress[0m
[31m vcan0  7E0  [3]  [FC] FC: 0 = CTS # BS: 0 = off # STmin: 0x00 = 0 ms[0m
[34m vcan0  7E8  [8]  [CF] sn: 1    data: 00 00 00 00 00 00 00  -  '.......'[0m
[34m vcan0  7E8  [8]  [CF] sn: 2    data: 00 00 00 00 00 00 00  -  '.......'[0m
[31m vcan0  7E0  [8]  [SF] ln: 7    data: 23 14 00 01 A1 10 10  -  '#......' - [SRQ] ReadMemoryByAddress[0m
[34m vcan0  7E8  [8]  [FF] ln: 17   data: 63 00 00 00 00 00     -  'c.....'  - [PSR] ReadMemoryByAddress[0m
[31m vcan0  7E0  [3]  [FC] FC: 0 = CTS # BS: 0 = off # STmin: 0x00 = 0 ms[0m
[34m vcan0  7E8  [8]  [CF] sn: 1    data: 00 00 00 00 00 00 00  -  '.......'[0m
[34m vcan0  7E8  [8]  [CF] sn: 2    data: 00 00 00 00 00 00 00  -  '.......'[0m
[31m vcan0  7E0  [8]  [SF] ln: 7    data: 23 14 00 01 A1 20 10  -  '#.... .' - [SRQ] ReadMemoryByAddress[0m
[34m vcan0  7E8  [8]  [FF] ln: 17   data: 63 00 00 00 00 00     -  'c.....'  - [PSR] ReadMemoryByAddress[0m
[31m vcan0  7E0  [3]  [FC] FC: 0 = CTS # BS: 0 = off # STmin: 0x00 = 0 ms[0m
[34m vcan0  7E8  [8]  [CF] sn: 1    data: 00 00 00 00 00 00 00  -  '.......'[0m
[34m vcan0  7E8  [8]  [CF] sn: 2    data: 00 00 00 00 00 00 00  -  '.......'[0m
[31m vcan0  7E0  [8]  [SF] ln: 7    data: 23 14 00 01 A1 30 10  -  '#....0.' - [SRQ] ReadMemoryByAddress[0m
[34m vcan0  7E8  [8]  [FF] ln: 17   data: 63 00 00 00 00 00     -  'c.....'  - [PSR] ReadMemoryByAddress[0m
[31m vcan0  7E0  [3]  [FC] FC: 0 = CTS # BS: 0 = off # STmin: 0x00 = 0 ms[0m
[34m vcan0  7E8  [8]  [CF] sn: 1    data: 00 00 00 00 00 00 00  -  '.......'[0m
[34m vcan0  7E8  [8]  [CF] sn: 2    data: 00 00 00 00 00 00 00  -  '.......'[0m
[31m vcan0  7E0  [8]  [SF] ln: 7    data: 23 14 00 01 A1 40 10  -  '#....@.' - [SRQ] ReadMemoryByAddress[0m
[34m vcan0  7E8  [8]  [FF] ln: 17   data: 63 00 00 00 00 00     -  'c.....'  - [PSR] ReadMemoryByAddress[0m
[31m vcan0  7E0  [3]  [FC] FC: 0 = CTS # BS: 0 = off # STmin: 0x00 = 0 ms[0m
[34m vcan0  7E8  [8]  [CF] sn: 1    data: 00 00 00 00 00 00 00  -  '.......'[0m
[34m vcan0  7E8  [8]  [CF] sn: 2    data: 00 00 00 00 00 00 00  -  '.......'[0m
[31m vcan0  7E0  [8]  [SF] ln: 7    data: 23 14 00 01 A1 50 10  -  '#....P.' - [SRQ] ReadMemoryByAddress[0m
[34m vcan0  7E8  [8]  [FF] ln: 17   data: 63 00 00 00 00 00     -  'c.....'  - [PSR] ReadMemoryByAddress[0m
[31m vcan0  7E0  [3]  [FC] FC: 0 = CTS # BS: 0 = off # STmin: 0x00 = 0 ms[0m
[34m vcan0  7E8  [8]  [CF] sn: 1    data: 00 00 00 00 00 00 00  -  '.......'[0m
[34m vcan0  7E8  [8]  [CF] sn: 2    data: 00 00 00 00 00 00 00  -  '.......'[0m
[31m vcan0  7E0  [8]  [SF] ln: 7    data: 23 14 00 01 A1 60 10  -  '#....`.' - [SRQ] ReadMemoryByAddress[0m
[34m vcan0  7E8  [8]  [FF] ln: 17   data: 63 00 00 00 00 00     -  'c.....'  - [PSR] ReadMemoryByAddress[0m
[31m vcan0  7E0  [3]  [FC] FC: 0 = CTS # BS: 0 = off # STmin: 0x00 = 0 ms[0m
[34m vcan0  7E8  [8]  [CF] sn: 1    data: 00 00 00 00 00 00 00  -  '.......'[0m
[34m vcan0  7E8  [8]  [CF] sn: 2    data: 00 00 00 00 00 00 00  -  '.......'[0m
[31m vcan0  7E0  [8]  [SF] ln: 7    data: 23 14 00 01 A1 70 10  -  '#....p.' - [SRQ] ReadMemoryByAddress[0m
[34m vcan0  7E8  [8]  [FF] ln: 17   data: 63 00 00 00 00 00     -  'c.....'  - [PSR] ReadMemoryByAddress[0m
[31m vcan0  7E0  [3]  [FC] FC: 0 = CTS # BS: 0 = off # STmin: 0x00 = 0 ms[0m
[34m vcan0  7E8  [8]  [CF] sn: 1    data: 00 00 00 00 00 00 00  -  '.......'[0m
[34m vcan0  7E8  [8]  [CF] sn: 2    data: 00 00 00 00 00 00 00  -  '.......'[0m
[31m vcan0  7E0  [3]  [SF] ln: 2    data: 11 01                 -  '..'      - [SRQ] ECUReset[0m
[34m vcan0  7E8  [8]  [SF] ln: 2    data: 51 01 00 00 00 00 00  -  'Q......' - [PSR] ECUReset[0m
[31m vcan0  7E0  [3]  [SF] ln: 2    data: 10 03                 -  '..'      - [SRQ] DiagnosticSessionControl[0m
[34m vcan0  7E8  [8]  [SF] ln: 2    data: 50 03 00 00 00 00 00  -  'P......' - [PSR] DiagnosticSessionControl[0m
[31m vcan0  7E0  [3]  [SF] ln: 2    data: 27 03                 -  ''.'      - [SRQ] SecurityAccess[0m
[34m vcan0  7E8  [8]  [SF] ln: 4    data: 67 03 72 19 00 00 00  -  'g.r....' - [PSR] SecurityAccess[0m
[31m vcan0  7E0  [5]  [SF] ln: 4    data: 27 04 8D E6           -  ''...'    - [SRQ] SecurityAccess[0m
[34m vcan0  7E8  [8]  [SF] ln: 2    data: 67 04 00 00 00 00 00  -  'g......' - [PSR] SecurityAccess[0m
[31m vcan0  7E0  [3]  [SF] ln: 2    data: 10 02                 -  '..'      - [SRQ] DiagnosticSessionControl[0m
[34m vcan0  7E8  [8]  [SF] ln: 2    data: 50 02 00 00 00 00 00  -  'P......' - [PSR] DiagnosticSessionControl[0m
[31m vcan0  7E0  [8]  [SF] ln: 7    data: 23 14 00 01 A0 00 80  -  '#......' - [SRQ] ReadMemoryByAddress[0m
[34m vcan0  7E8  [8]  [FF] ln: 129  data: 63 42 48 53 4D 20     -  'cBHSM '  - [PSR] ReadMemoryByAddress[0m
[31m vcan0  7E0  [3]  [FC] FC: 0 = CTS # BS: 0 = off # STmin: 0x00 = 0 ms[0m
[34m vcan0  7E8  [8]  [CF] sn: 1    data: 28 73 65 63 75 72 65  -  '(secure'[0m
[34m vcan0  7E8  [8]  [CF] sn: 2    data: 20 6D 65 6D 6F 72 79  -  ' memory'[0m
[34m vcan0  7E8  [8]  [CF] sn: 3    data: 29 00 00 00 00 00 00  -  ')......'[0m
[34m vcan0  7E8  [8]  [CF] sn: 4    data: 00 00 00 00 00 00 00  -  '.......'[0m
[34m vcan0  7E8  [8]  [CF] sn: 5    data: 00 00 00 00 00 00 00  -  '.......'[0m
[34m vcan0  7E8  [8]  [CF] sn: 6    data: 00 00 00 00 00 00 00  -  '.......'[0m
[34m vcan0  7E8  [8]  [CF] sn: 7    data: 00 00 00 00 00 00 00  -  '.......'[0m
[34m vcan0  7E8  [8]  [CF] sn: 8    data: 00 00 00 00 00 00 00  -  '.......'[0m
[34m vcan0  7E8  [8]  [CF] sn: 9    data: 00 00 00 00 00 00 00  -  '.......'[0m
[34m vcan0  7E8  [8]  [CF] sn: A    data: 00 00 00 00 00 00 00  -  '.......'[0m
[34m vcan0  7E8  [8]  [CF] sn: B    data: 00 00 00 00 00 00 00  -  '.......'[0m
[34m vcan0  7E8  [8]  [CF] sn: C    data: 00 00 00 00 00 00 00  -  '.......'[0m
[34m vcan0  7E8  [8]  [CF] sn: D    data: 00 00 00 00 00 00 00  -  '.......'[0m
[34m vcan0  7E8  [8]  [CF] sn: E    data: 00 00 00 00 00 00 00  -  '.......'[0m
[34m vcan0  7E8  [8]  [CF] sn: F    data: 00 00 00 00 00 00 00  -  '.......'[0m
[34m vcan0  7E8  [8]  [CF] sn: 0    data: 00 00 00 00 00 00 00  -  '.......'[0m
[34m vcan0  7E8  [8]  [CF] sn: 1    data: 00 00 00 00 00 00 00  -  '.......'[0m
[34m vcan0  7E8  [8]  [CF] sn: 2    data: 00 00 00 00 00 00 00  -  '.......'[0m
[31m vcan0  7E0  [8]  [SF] ln: 7    data: 23 14 00 01 A0 80 80  -  '#......' - [SRQ] ReadMemoryByAddress[0m
[34m vcan0  7E8  [8]  [FF] ln: 129  data: 63 00 00 00 00 00     -  'c.....'  - [PSR] ReadMemoryByAddress[0m
[31m vcan0  7E0  [3]  [FC] FC: 0 = CTS # BS: 0 = off # STmin: 0x00 = 0 ms[0m
[34m vcan0  7E8  [8]  [CF] sn: 1    data: 00 00 00 00 00 00 00  -  '.......'[0m
[34m vcan0  7E8  [8]  [CF] sn: 2    data: 00 00 00 00 00 00 00  -  '.......'[0m
[34m vcan0  7E8  [8]  [CF] sn: 3    data: 00 00 00 00 00 00 00  -  '.......'[0m
[34m vcan0  7E8  [8]  [CF] sn: 4    data: 00 00 00 00 00 00 00  -  '.......'[0m
[34m vcan0  7E8  [8]  [CF] sn: 5    data: 00 00 00 00 00 00 00  -  '.......'[0m
[34m vcan0  7E8  [8]  [CF] sn: 6    data: 00 00 00 00 00 00 00  -  '.......'[0m
[34m vcan0  7E8  [8]  [CF] sn: 7    data: 00 00 00 00 00 00 00  -  '.......'[0m
[34m vcan0  7E8  [8]  [CF] sn: 8    data: 00 00 00 00 00 00 00  -  '.......'[0m
[34m vcan0  7E8  [8]  [CF] sn: 9    data: 00 00 00 00 00 00 00  -  '.......'[0m
[34m vcan0  7E8  [8]  [CF] sn: A    data: 00 00 00 00 00 00 00  -  '.......'[0m
[34m vcan0  7E8  [8]  [CF] sn: B    data: 00 00 00 00 00 00 00  -  '.......'[0m
[34m vcan0  7E8  [8]  [CF] sn: C    data: 00 00 00 00 00 00 00  -  '.......'[0m
[34m vcan0  7E8  [8]  [CF] sn: D    data: 00 00 00 00 00 00 00  -  '.......'[0m
[34m vcan0  7E8  [8]  [CF] sn: E    data: 00 00 00 00 00 00 00  -  '.......'[0m
[34m vcan0  7E8  [8]  [CF] sn: F    data: 00 00 00 00 00 00 00  -  '.......'[0m
[34m vcan0  7E8  [8]  [CF] sn: 0    data: 00 00 00 00 00 00 00  -  '.......'[0m
[34m vcan0  7E8  [8]  [CF] sn: 1    data: 00 00 00 00 00 00 00  -  '.......'[0m
[34m vcan0  7E8  [8]  [CF] sn: 2    data: 00 00 00 00 00 00 00  -  '.......'[0m
[31m vcan0  7E0  [8]  [SF] ln: 7    data: 23 14 00 01 A1 00 80  -  '#......' - [SRQ] ReadMemoryByAddress[0m
[34m vcan0  7E8  [8]  [FF] ln: 129  data: 63 00 00 00 00 00     -  'c.....'  - [PSR] ReadMemoryByAddress[0m
[31m vcan0  7E0  [3]  [FC] FC: 0 = CTS # BS: 0 = off # STmin: 0x00 = 0 ms[0m
[34m vcan0  7E8  [8]  [CF] sn: 1    data: 00 00 00 00 00 00 00  -  '.......'[0m
[34m vcan0  7E8  [8]  [CF] sn: 2    data: 00 00 00 00 00 00 00  -  '.......'[0m
[34m vcan0  7E8  [8]  [CF] sn: 3    data: 00 00 00 00 00 00 00  -  '.......'[0m
[34m vcan0  7E8  [8]  [CF] sn: 4    data: 00 00 00 00 00 00 00  -  '.......'[0m
[34m vcan0  7E8  [8]  [CF] sn: 5    data: 00 00 00 00 00 00 00  -  '.......'[0m
[34m vcan0  7E8  [8]  [CF] sn: 6    data: 00 00 00 00 00 00 00  -  '.......'[0m
[34m vcan0  7E8  [8]  [CF] sn: 7    data: 00 00 00 00 00 00 00  -  '.......'[0m
[34m vcan0  7E8  [8]  [CF] sn: 8    data: 00 00 00 00 00 00 00  -  '.......'[0m
[34m vcan0  7E8  [8]  [CF] sn: 9    data: 00 00 00 00 00 00 00  -  '.......'[0m
[34m vcan0  7E8  [8]  [CF] sn: A    data: 00 00 00 00 00 00 00  -  '.......'[0m
[34m vcan0  7E8  [8]  [CF] sn: B    data: 00 00 00 00 00 00 00  -  '.......'[0m
[34m vcan0  7E8  [8]  [CF] sn: C    data: 00 00 00 00 00 00 00  -  '.......'[0m
[34m vcan0  7E8  [8]  [CF] sn: D    data: 00 00 00 00 00 00 00  -  '.......'[0m
[34m vcan0  7E8  [8]  [CF] sn: E    data: 00 00 00 00 00 00 00  -  '.......'[0m
[34m vcan0  7E8  [8]  [CF] sn: F    data: 00 00 00 00 00 00 00  -  '.......'[0m
[34m vcan0  7E8  [8]  [CF] sn: 0    data: 00 00 00 00 00 00 00  -  '.......'[0m
[34m vcan0  7E8  [8]  [CF] sn: 1    data: 00 00 00 00 00 00 00  -  '.......'[0m
[34m vcan0  7E8  [8]  [CF] sn: 2    data: 00 00 00 00 00 00 00  -  '.......'[0m
[31m vcan0  7E0  [8]  [SF] ln: 7    data: 23 14 00 01 A1 80 80  -  '#......' - [SRQ] ReadMemoryByAddress[0m
[34m vcan0  7E8  [8]  [FF] ln: 129  data: 63 00 00 00 00 00     -  'c.....'  - [PSR] ReadMemoryByAddress[0m
[31m vcan0  7E0  [3]  [FC] FC: 0 = CTS # BS: 0 = off # STmin: 0x00 = 0 ms[0m
[34m vcan0  7E8  [8]  [CF] sn: 1    data: 00 00 00 00 00 00 00  -  '.......'[0m
[34m vcan0  7E8  [8]  [CF] sn: 2    data: 00 00 00 00 00 00 00  -  '.......'[0m
[34m vcan0  7E8  [8]  [CF] sn: 3    data: 00 00 00 00 00 00 00  -  '.......'[0m
[34m vcan0  7E8  [8]  [CF] sn: 4    data: 00 00 00 00 00 00 00  -  '.......'[0m
[34m vcan0  7E8  [8]  [CF] sn: 5    data: 00 00 00 00 00 00 00  -  '.......'[0m
[34m vcan0  7E8  [8]  [CF] sn: 6    data: 00 00 00 00 00 00 00  -  '.......'[0m
[34m vcan0  7E8  [8]  [CF] sn: 7    data: 00 00 00 00 00 00 00  -  '.......'[0m
[34m vcan0  7E8  [8]  [CF] sn: 8    data: 00 00 00 00 00 00 00  -  '.......'[0m
[34m vcan0  7E8  [8]  [CF] sn: 9    data: 00 00 00 00 00 00 00  -  '.......'[0m
[34m vcan0  7E8  [8]  [CF] sn: A    data: 00 00 00 00 00 00 00  -  '.......'[0m
[34m vcan0  7E8  [8]  [CF] sn: B    data: 00 00 00 00 00 00 00  -  '.......'[0m
[34m vcan0  7E8  [8]  [CF] sn: C    data: 00 00 00 00 00 00 00  -  '.......'[0m
[34m vcan0  7E8  [8]  [CF] sn: D    data: 00 00 00 00 00 00 00  -  '.......'[0m
[34m vcan0  7E8  [8]  [CF] sn: E    data: 00 00 00 00 00 00 00  -  '.......'[0m
[34m vcan0  7E8  [8]  [CF] sn: F    data: 00 00 00 00 00 00 00  -  '.......'[0m
[34m vcan0  7E8  [8]  [CF] sn: 0    data: 00 00 00 00 00 00 00  -  '.......'[0m
[34m vcan0  7E8  [8]  [CF] sn: 1    data: 00 00 00 00 00 00 00  -  '.......'[0m
[34m vcan0  7E8  [8]  [CF] sn: 2    data: 00 00 00 00 00 00 00  -  '.......'[0m
[31m vcan0  7E0  [8]  [SF] ln: 7    data: 23 14 00 01 A2 00 80  -  '#......' - [SRQ] ReadMemoryByAddress[0m
[34m vcan0  7E8  [8]  [FF] ln: 129  data: 63 00 00 00 00 00     -  'c.....'  - [PSR] ReadMemoryByAddress[0m
[31m vcan0  7E0  [3]  [FC] FC: 0 = CTS # BS: 0 = off # STmin: 0x00 = 0 ms[0m
[34m vcan0  7E8  [8]  [CF] sn: 1    data: 00 00 00 00 00 00 00  -  '.......'[0m
[34m vcan0  7E8  [8]  [CF] sn: 2    data: 00 00 00 00 00 00 00  -  '.......'[0m
[34m vcan0  7E8  [8]  [CF] sn: 3    data: 00 00 00 00 00 00 00  -  '.......'[0m
[34m vcan0  7E8  [8]  [CF] sn: 4    data: 00 00 00 00 00 00 00  -  '.......'[0m
[34m vcan0  7E8  [8]  [CF] sn: 5    data: 00 00 00 00 00 00 00  -  '.......'[0m
[34m vcan0  7E8  [8]  [CF] sn: 6    data: 00 00 00 00 00 00 00  -  '.......'[0m
[34m vcan0  7E8  [8]  [CF] sn: 7    data: 00 00 00 00 00 00 00  -  '.......'[0m
[34m vcan0  7E8  [8]  [CF] sn: 8    data: 00 00 00 00 00 00 00  -  '.......'[0m
[34m vcan0  7E8  [8]  [CF] sn: 9    data: 00 00 00 00 00 00 00  -  '.......'[0m
[34m vcan0  7E8  [8]  [CF] sn: A    data: 00 00 00 00 00 00 00  -  '.......'[0m
[34m vcan0  7E8  [8]  [CF] sn: B    data: 00 00 00 00 00 00 00  -  '.......'[0m
[34m vcan0  7E8  [8]  [CF] sn: C    data: 00 00 00 00 00 00 00  -  '.......'[0m
[34m vcan0  7E8  [8]  [CF] sn: D    data: 00 00 00 00 00 00 00  -  '.......'[0m
[34m vcan0  7E8  [8]  [CF] sn: E    data: 00 00 00 00 00 00 00  -  '.......'[0m
[34m vcan0  7E8  [8]  [CF] sn: F    data: 00 00 00 00 00 00 00  -  '.......'[0m
[34m vcan0  7E8  [8]  [CF] sn: 0    data: 00 00 00 00 00 00 00  -  '.......'[0m
[34m vcan0  7E8  [8]  [CF] sn: 1    data: 00 00 00 00 00 00 00  -  '.......'[0m
[34m vcan0  7E8  [8]  [CF] sn: 2    data: 00 00 00 00 00 00 00  -  '.......'[0m
[31m vcan0  7E0  [8]  [SF] ln: 7    data: 23 14 00 01 A2 80 80  -  '#......' - [SRQ] ReadMemoryByAddress[0m
[34m vcan0  7E8  [8]  [FF] ln: 129  data: 63 00 00 00 00 00     -  'c.....'  - [PSR] ReadMemoryByAddress[0m
[31m vcan0  7E0  [3]  [FC] FC: 0 = CTS # BS: 0 = off # STmin: 0x00 = 0 ms[0m
[34m vcan0  7E8  [8]  [CF] sn: 1    data: 00 00 00 00 00 00 00  -  '.......'[0m
[34m vcan0  7E8  [8]  [CF] sn: 2    data: 00 00 00 00 00 00 00  -  '.......'[0m
[34m vcan0  7E8  [8]  [CF] sn: 3    data: 00 00 00 00 00 00 00  -  '.......'[0m
[34m vcan0  7E8  [8]  [CF] sn: 4    data: 00 00 00 00 00 00 00  -  '.......'[0m
[34m vcan0  7E8  [8]  [CF] sn: 5    data: 00 00 00 00 00 00 00  -  '.......'[0m
[34m vcan0  7E8  [8]  [CF] sn: 6    data: 00 00 00 00 00 00 00  -  '.......'[0m
[34m vcan0  7E8  [8]  [CF] sn: 7    data: 00 00 00 00 00 00 00  -  '.......'[0m
[34m vcan0  7E8  [8]  [CF] sn: 8    data: 00 00 00 00 00 00 00  -  '.......'[0m
[34m vcan0  7E8  [8]  [CF] sn: 9    data: 00 00 00 00 00 00 00  -  '.......'[0m
[34m vcan0  7E8  [8]  [CF] sn: A    data: 00 00 00 00 00 00 00  -  '.......'[0m
[34m vcan0  7E8  [8]  [CF] sn: B    data: 00 00 00 00 00 00 00  -  '.......'[0m
[34m vcan0  7E8  [8]  [CF] sn: C    data: 00 00 00 00 00 00 00  -  '.......'[0m
[34m vcan0  7E8  [8]  [CF] sn: D    data: 00 00 00 00 00 00 00  -  '.......'[0m
[34m vcan0  7E8  [8]  [CF] sn: E    data: 00 00 00 00 00 00 00  -  '.......'[0m
[34m vcan0  7E8  [8]  [CF] sn: F    data: 00 00 00 00 00 00 00  -  '.......'[0m
[34m vcan0  7E8  [8]  [CF] sn: 0    data: 00 00 00 00 00 00 00  -  '.......'[0m
[34m vcan0  7E8  [8]  [CF] sn: 1    data: 00 00 00 00 00 00 00  -  '.......'[0m
[34m vcan0  7E8  [8]  [CF] sn: 2    data: 00 00 00 00 00 00 00  -  '.......'[0m
[31m vcan0  7E0  [8]  [SF] ln: 7    data: 23 14 00 01 A3 00 80  -  '#......' - [SRQ] ReadMemoryByAddress[0m
[34m vcan0  7E8  [8]  [FF] ln: 129  data: 63 00 00 00 00 00     -  'c.....'  - [PSR] ReadMemoryByAddress[0m
[31m vcan0  7E0  [3]  [FC] FC: 0 = CTS # BS: 0 = off # STmin: 0x00 = 0 ms[0m
[34m vcan0  7E8  [8]  [CF] sn: 1    data: 00 00 00 00 00 00 00  -  '.......'[0m
[34m vcan0  7E8  [8]  [CF] sn: 2    data: 00 00 00 00 00 00 00  -  '.......'[0m
[34m vcan0  7E8  [8]  [CF] sn: 3    data: 00 00 00 00 00 00 00  -  '.......'[0m
[34m vcan0  7E8  [8]  [CF] sn: 4    data: 00 00 00 00 00 00 00  -  '.......'[0m
[34m vcan0  7E8  [8]  [CF] sn: 5    data: 00 00 00 00 00 00 00  -  '.......'[0m
[34m vcan0  7E8  [8]  [CF] sn: 6    data: 00 00 00 00 00 00 00  -  '.......'[0m
[34m vcan0  7E8  [8]  [CF] sn: 7    data: 00 00 00 00 00 00 00  -  '.......'[0m
[34m vcan0  7E8  [8]  [CF] sn: 8    data: 00 00 00 00 00 00 00  -  '.......'[0m
[34m vcan0  7E8  [8]  [CF] sn: 9    data: 00 00 00 00 00 00 00  -  '.......'[0m
