[31m vcan0  7E0  [3]  [SF] ln: 2    data: 11 01                 -  '..'      - [SRQ] ECUReset[0m
[34m vcan0  7E8  [8]  [SF] ln: 2    data: 51 01 00 00 00 00 00  -  'Q......' - [PSR] ECUReset[0m
[31m vcan0  7E0  [3]  [SF] ln: 2    data: 10 03                 -  '..'      - [SRQ] DiagnosticSessionControl[0m
[34m vcan0  7E8  [8]  [SF] ln: 2    data: 50 03 00 00 00 00 00  -  'P......' - [PSR] DiagnosticSessionControl[0m
[31m vcan0  7E0  [3]  [SF] ln: 2    data: 27 03                 -  ''.'      - [SRQ] SecurityAccess[0m
[34m vcan0  7E8  [8]  [SF] ln: 4    data: 67 03 5E 54 00 00 00  -  'g.^T...' - [PSR] SecurityAccess[0m
[31m vcan0  7E0  [5]  [SF] ln: 4    data: 27 04 A1 AB           -  ''...'    - [SRQ] SecurityAccess[0m
[34m vcan0  7E8  [8]  [SF] ln: 2    data: 67 04 00 00 00 00 00  -  'g......' - [PSR] SecurityAccess[0m
[31m vcan0  7E0  [3]  [SF] ln: 2    data: 10 02                 -  '..'      - [SRQ] DiagnosticSessionControl[0m
[34m vcan0  7E8  [8]  [SF] ln: 2    data: 50 02 00 00 00 00 00  -  'P......' - [PSR] DiagnosticSessionControl[0m
[31m vcan0  7E0  [8]  [SF] ln: 7    data: 23 14 00 01 A0 00 80  -  '#......' - [SRQ] ReadMemoryByAddress[0m
[34m vcan0  7E8  [8]  [FF] ln: 129  data: 63 42 48 53 4D 20     -  'cBHSM '  - [PSR] ReadMemoryByAddress[0m
[31m vcan0  7E0  [3]  [FC] FC: 0 = CTS # BS: 0 = off # STmin: 0x00 = 0 ms[0m
[34m vcan0  7E8  [8]  [CF] sn: 1    data: 28 73 65 63 75 72 65  -  '(secure'[0m
[34m vcan0  7E8  [8]  [CF] sn: 2    data: 20 6D 65 6D 6F 72 79  -  ' memory'[0m
[34m vcan0  7E8  [8]  [CF] sn: 3    data: 29 00 00 00 00 00 00  -  ')......'[0m
[34m vcan0  7E8  [8]  [CF] sn: 4    data: 00 00 00 00 00 00 00  -  '.......'[0m
[34m vcan0  7E8  [8]  [CF] sn: 5    data: 00 00 00 00 00 00 00  -  '.......'[0m
[34m vcan0  7E8  [8]  [CF] sn: 6    data: 00 00 00 00 00 00 00  -  '.......'[0m
[34m vcan0  7E8  [8]  [CF] sn: 7    data: 00 00 00 00 00 00 00  -  '.......'[0m
[34m vcan0  7E8  [8]  [CF] sn: 8    data: 00 00 00 00 00 00 00  -  '.......'[0m
[34m vcan0  7E8  [8]  [CF] sn: 9    data: 00 00 00 00 00 00 00  -  '.......'[0m
[34m vcan0  7E8  [8]  [CF] sn: A    data: 00 00 00 00 00 00 00  -  '.......'[0m
[34m vcan0  7E8  [8]  [CF] sn: B    data: 00 00 00 00 00 00 00  -  '.......'[0m
[34m vcan0  7E8  [8]  [CF] sn: C    data: 00 00 00 00 00 00 00  -  '.......'[0m
[34m vcan0  7E8  [8]  [CF] sn: D    data: 00 00 00 00 00 00 00  -  '.......'[0m
[34m vcan0  7E8  [8]  [CF] sn: E    data: 00 00 00 00 00 00 00  -  '.......'[0m
[34m vcan0  7E8  [8]  [CF] sn: F    data: 00 00 00 00 00 00 00  -  '.......'[0m
[34m vcan0  7E8  [8]  [CF] sn: 0    data: 00 00 00 00 00 00 00  -  '.......'[0m
[34m vcan0  7E8  [8]  [CF] sn: 1    data: 00 00 00 00 00 00 00  -  '.......'[0m
[34m vcan0  7E8  [8]  [CF] sn: 2    data: 00 00 00 00 00 00 00  -  '.......'[0m
[31m vcan0  7E0  [8]  [SF] ln: 7    data: 23 14 00 01 A0 80 80  -  '#......' - [SRQ] ReadMemoryByAddress[0m
[34m vcan0  7E8  [8]  [FF] ln: 129  data: 63 00 00 00 00 00     -  'c.....'  - [PSR] ReadMemoryByAddress[0m
[31m vcan0  7E0  [8]  [SF] ln: 7    data: 23 14 00 01 A1 00 80  -  '#......' - [SRQ] ReadMemoryByAddress[0m
[31m vcan0  7E0  [8]  [SF] ln: 7    data: 23 14 00 01 A1 80 80  -  '#......' - [SRQ] ReadMemoryByAddress[0m
[31m vcan0  7E0  [8]  [SF] ln: 7    data: 23 14 00 01 A2 00 80  -  '#......' - [SRQ] ReadMemoryByAddress[0m
[31m vcan0  7E0  [8]  [SF] ln: 7    data: 23 14 00 01 A2 80 80  -  '#......' - [SRQ] ReadMemoryByAddress[0m
[31m vcan0  7E0  [8]  [SF] ln: 7    data: 23 14 00 01 A3 00 80  -  '#......' - [SRQ] ReadMemoryByAddress[0m
[31m vcan0  7E0  [8]  [SF] ln: 7    data: 23 14 00 01 A3 80 80  -  '#......' - [SRQ] ReadMemoryByAddress[0m
[31m vcan0  7E0  [8]  [SF] ln: 7    data: 23 14 00 01 A4 00 80  -  '#......' - [SRQ] ReadMemoryByAddress[0m
[31m vcan0  7E0  [8]  [SF] ln: 7    data: 23 14 00 01 A4 80 80  -  '#......' - [SRQ] ReadMemoryByAddress[0m
[31m vcan0  7E0  [8]  [SF] ln: 7    data: 23 14 00 01 A5 00 80  -  '#......' - [SRQ] ReadMemoryByAddress[0m
[31m vcan0  7E0  [8]  [SF] ln: 7    data: 23 14 00 01 A5 80 80  -  '#......' - [SRQ] ReadMemoryByAddress[0m
[34m vcan0  7E8  [8]  [FF] ln: 129  data: 63 00 00 00 00 00     -  'c.....'  - [PSR] ReadMemoryByAddress[0m
[31m vcan0  7E0  [3]  [FC] FC: 0 = CTS # BS: 0 = off # STmin: 0x00 = 0 ms[0m
[34m vcan0  7E8  [8]  [CF] sn: 1    data: 00 00 00 00 00 00 00  -  '.......'[0m
[34m vcan0  7E8  [8]  [CF] sn: 2    data: 00 00 00 00 00 00 00  -  '.......'[0m
[34m vcan0  7E8  [8]  [CF] sn: 3    data: 00 00 00 00 00 00 00  -  '.......'[0m
[34m vcan0  7E8  [8]  [CF] sn: 4    data: 00 00 00 00 00 00 00  -  '.......'[0m
[34m vcan0  7E8  [8]  [CF] sn: 5    data: 00 00 00 00 00 00 00  -  '.......'[0m
[34m vcan0  7E8  [8]  [CF] sn: 6    data: 00 00 00 00 00 00 00  -  '.......'[0m
[34m vcan0  7E8  [8]  [CF] sn: 7    data: 00 00 00 00 00 00 00  -  '.......'[0m
[34m vcan0  7E8  [8]  [CF] sn: 8    data: 00 00 00 00 00 00 00  -  '.......'[0m
[34m vcan0  7E8  [8]  [CF] sn: 9    data: 00 00 00 00 00 00 00  -  '.......'[0m
[34m vcan0  7E8  [8]  [CF] sn: A    data: 00 00 00 00 00 00 00  -  '.......'[0m
[34m vcan0  7E8  [8]  [CF] sn: B    data: 00 00 00 00 00 00 00  -  '.......'[0m
[34m vcan0  7E8  [8]  [CF] sn: C    data: 00 00 00 00 00 00 00  -  '.......'[0m
[34m vcan0  7E8  [8]  [CF] sn: D    data: 00 00 00 00 00 00 00  -  '.......'[0m
[34m vcan0  7E8  [8]  [CF] sn: E    data: 00 00 00 00 00 00 00  -  '.......'[0m
[34m vcan0  7E8  [8]  [CF] sn: F    data: 00 00 00 00 00 00 00  -  '.......'[0m
[34m vcan0  7E8  [8]  [CF] sn: 0    data: 00 00 00 00 00 00 00  -  '.......'[0m
[34m vcan0  7E8  [8]  [CF] sn: 1    data: 00 00 00 00 00 00 00  -  '.......'[0m
[34m vcan0  7E8  [8]  [CF] sn: 2    data: 00 00 00 00 00 00 00  -  '.......'[0m
[31m vcan0  7E0  [8]  [SF] ln: 7    data: 23 14 00 01 A6 00 80  -  '#......' - [SRQ] ReadMemoryByAddress[0m
[34m vcan0  7E8  [8]  [FF] ln: 129  data: 63 00 00 00 00 00     -  'c.....'  - [PSR] ReadMemoryByAddress[0m
[31m vcan0  7E0  [8]  [SF] ln: 7    data: 23 14 00 01 A6 80 80  -  '#......' - [SRQ] ReadMemoryByAddress[0m
[31m vcan0  7E0  [8]  [SF] ln: 7    data: 23 14 00 01 A7 00 80  -  '#......' - [SRQ] ReadMemoryByAddress[0m
[31m vcan0  7E0  [8]  [SF] ln: 7    data: 23 14 00 01 A7 80 80  -  '#......' - [SRQ] ReadMemoryByAddress[0m
[31m vcan0  7E0  [8]  [SF] ln: 7    data: 23 14 00 01 A8 00 80  -  '#......' - [SRQ] ReadMemoryByAddress[0m
[31m vcan0  7E0  [8]  [SF] ln: 7    data: 23 14 00 01 A8 80 80  -  '#......' - [SRQ] ReadMemoryByAddress[0m
[31m vcan0  7E0  [8]  [SF] ln: 7    data: 23 14 00 01 A9 00 80  -  '#......' - [SRQ] ReadMemoryByAddress[0m
[31m vcan0  7E0  [8]  [SF] ln: 7    data: 23 14 00 01 A9 80 80  -  '#......' - [SRQ] ReadMemoryByAddress[0m
[31m vcan0  7E0  [8]  [SF] ln: 7    data: 23 14 00 01 AA 00 80  -  '#......' - [SRQ] ReadMemoryByAddress[0m
[31m vcan0  7E0  [8]  [SF] ln: 7    data: 23 14 00 01 AA 80 80  -  '#......' - [SRQ] ReadMemoryByAddress[0m
[31m vcan0  7E0  [3]  [SF] ln: 2    data: 11 01                 -  '..'      - [SRQ] ECUReset[0m
[34m vcan0  7E8  [8]  [SF] ln: 2    data: 51 01 00 00 00 00 00  -  'Q......' - [PSR] ECUReset[0m
[31m vcan0  7E0  [3]  [SF] ln: 2    data: 10 03                 -  '..'      - [SRQ] DiagnosticSessionControl[0m
[34m vcan0  7E8  [8]  [SF] ln: 2    data: 50 03 00 00 00 00 00  -  'P......' - [PSR] DiagnosticSessionControl[0m
[31m vcan0  7E0  [3]  [SF] ln: 2    data: 27 03                 -  ''.'      - [SRQ] SecurityAccess[0m
[34m vcan0  7E8  [8]  [SF] ln: 4    data: 67 03 E2 26 00 00 00  -  'g..&...' - [PSR] SecurityAccess[0m
[31m vcan0  7E0  [5]  [SF] ln: 4    data: 27 04 1D D9           -  ''...'    - [SRQ] SecurityAccess[0m
[34m vcan0  7E8  [8]  [SF] ln: 2    data: 67 04 00 00 00 00 00  -  'g......' - [PSR] SecurityAccess[0m
[31m vcan0  7E0  [3]  [SF] ln: 2    data: 10 02                 -  '..'      - [SRQ] DiagnosticSessionControl[0m
[34m vcan0  7E8  [8]  [SF] ln: 2    data: 50 02 00 00 00 00 00  -  'P......' - [PSR] DiagnosticSessionControl[0m
[31m vcan0  7E0  [8]  [SF] ln: 7    data: 23 14 00 01 A0 00 80  -  '#......' - [SRQ] ReadMemoryByAddress[0m
[34m vcan0  7E8  [8]  [FF] ln: 129  data: 63 42 48 53 4D 20     -  'cBHSM '  - [PSR] ReadMemoryByAddress[0m
[31m vcan0  7E0  [8]  [SF] ln: 7    data: 23 14 00 01 A0 80 80  -  '#......' - [SRQ] ReadMemoryByAddress[0m
[31m vcan0  7E0  [8]  [SF] ln: 7    data: 23 14 00 01 A1 00 80  -  '#......' - [SRQ] ReadMemoryByAddress[0m
[31m vcan0  7E0  [8]  [SF] ln: 7    data: 23 14 00 01 A1 80 80  -  '#......' - [SRQ] ReadMemoryByAddress[0m
[31m vcan0  7E0  [8]  [SF] ln: 7    data: 23 14 00 01 A2 00 80  -  '#......' - [SRQ] ReadMemoryByAddress[0m
[31m vcan0  7E0  [8]  [SF] ln: 7    data: 23 14 00 01 A2 80 80  -  '#......' - [SRQ] ReadMemoryByAddress[0m
[31m vcan0  7E0  [8]  [SF] ln: 7    data: 23 14 00 01 A3 00 80  -  '#......' - [SRQ] ReadMemoryByAddress[0m
[31m vcan0  7E0  [8]  [SF] ln: 7    data: 23 14 00 01 A3 80 80  -  '#......' - [SRQ] ReadMemoryByAddress[0m
[31m vcan0  7E0  [8]  [SF] ln: 7    data: 23 14 00 01 A4 00 80  -  '#......' - [SRQ] ReadMemoryByAddress[0m
[31m vcan0  7E0  [8]  [SF] ln: 7    data: 23 14 00 01 A4 80 80  -  '#......' - [SRQ] ReadMemoryByAddress[0m
[31m vcan0  7E0  [8]  [SF] ln: 7    data: 23 14 00 01 A5 00 80  -  '#......' - [SRQ] ReadMemoryByAddress[0m
[34m vcan0  7E8  [8]  [FF] ln: 129  data: 63 00 00 00 00 00     -  'c.....'  - [PSR] ReadMemoryByAddress[0m
[31m vcan0  7E0  [3]  [FC] FC: 0 = CTS # BS: 0 = off # STmin: 0x00 = 0 ms[0m
[34m vcan0  7E8  [8]  [CF] sn: 1    data: 00 00 00 00 00 00 00  -  '.......'[0m
[34m vcan0  7E8  [8]  [CF] sn: 2    data: 00 00 00 00 00 00 00  -  '.......'[0m
[34m vcan0  7E8  [8]  [CF] sn: 3    data: 00 00 00 00 00 00 00  -  '.......'[0m
[34m vcan0  7E8  [8]  [CF] sn: 4    data: 00 00 00 00 00 00 00  -  '.......'[0m
[34m vcan0  7E8  [8]  [CF] sn: 5    data: 00 00 00 00 00 00 00  -  '.......'[0m
[34m vcan0  7E8  [8]  [CF] sn: 6    data: 00 00 00 00 00 00 00  -  '.......'[0m
[34m vcan0  7E8  [8]  [CF] sn: 7    data: 00 00 00 00 00 00 00  -  '.......'[0m
[34m vcan0  7E8  [8]  [CF] sn: 8    data: 00 00 00 00 00 00 00  -  '.......'[0m
[34m vcan0  7E8  [8]  [CF] sn: 9    data: 00 00 00 00 00 00 00  -  '.......'[0m
[34m vcan0  7E8  [8]  [CF] sn: A    data: 00 00 00 00 00 00 00  -  '.......'[0m
[34m vcan0  7E8  [8]  [CF] sn: B    data: 00 00 00 00 00 00 00  -  '.......'[0m
[34m vcan0  7E8  [8]  [CF] sn: C    data: 00 00 00 00 00 00 00  -  '.......'[0m
[34m vcan0  7E8  [8]  [CF] sn: D    data: 00 00 00 00 00 00 00  -  '.......'[0m
[34m vcan0  7E8  [8]  [CF] sn: E    data: 00 00 00 00 00 00 00  -  '.......'[0m
[34m vcan0  7E8  [8]  [CF] sn: F    data: 00 00 00 00 00 00 00  -  '.......'[0m
[34m vcan0  7E8  [8]  [CF] sn: 0    data: 00 00 00 00 00 00 00  -  '.......'[0m
[34m vcan0  7E8  [8]  [CF] sn: 1    data: 00 00 00 00 00 00 00  -  '.......'[0m
[34m vcan0  7E8  [8]  [CF] sn: 2    data: 00 00 00 00 00 00 00  -  '.......'[0m
[31m vcan0  7E0  [8]  [SF] ln: 7    data: 23 14 00 01 A5 80 80  -  '#......' - [SRQ] ReadMemoryByAddress[0m
[34m vcan0  7E8  [8]  [FF] ln: 129  data: 63 00 00 00 00 00     -  'c.....'  - [PSR] ReadMemoryByAddress[0m
[31m vcan0  7E0  [8]  [SF] ln: 7    data: 23 14 00 01 A6 00 80  -  '#......' - [SRQ] ReadMemoryByAddress[0m
[31m vcan0  7E0  [8]  [SF] ln: 7    data: 23 14 00 01 A6 80 80  -  '#......' - [SRQ] ReadMemoryByAddress[0m
[31m vcan0  7E0  [8]  [SF] ln: 7    data: 23 14 00 01 A7 00 80  -  '#......' - [SRQ] ReadMemoryByAddress[0m
[31m vcan0  7E0  [8]  [SF] ln: 7    data: 23 14 00 01 A7 80 80  -  '#......' - [SRQ] ReadMemoryByAddress[0m
[31m vcan0  7E0  [8]  [SF] ln: 7    data: 23 14 00 01 A8 00 80  -  '#......' - [SRQ] ReadMemoryByAddress[0m
[31m vcan0  7E0  [8]  [SF] ln: 7    data: 23 14 00 01 A8 80 80  -  '#......' - [SRQ] ReadMemoryByAddress[0m
[31m vcan0  7E0  [8]  [SF] ln: 7    data: 23 14 00 01 A9 00 80  -  '#......' - [SRQ] ReadMemoryByAddress[0m
[31m vcan0  7E0  [8]  [SF] ln: 7    data: 23 14 00 01 A9 80 80  -  '#......' - [SRQ] ReadMemoryByAddress[0m
[31m vcan0  7E0  [8]  [SF] ln: 7    data: 23 14 00 01 AA 00 80  -  '#......' - [SRQ] ReadMemoryByAddress[0m
[31m vcan0  7E0  [8]  [SF] ln: 7    data: 23 14 00 01 AA 80 80  -  '#......' - [SRQ] ReadMemoryByAddress[0m
[34m vcan0  7E8  [8]  [FF] ln: 129  data: 63 00 00 00 00 00     -  'c.....'  - [PSR] ReadMemoryByAddress[0m
[31m vcan0  7E0  [3]  [FC] FC: 0 = CTS # BS: 0 = off # STmin: 0x00 = 0 ms[0m
[34m vcan0  7E8  [8]  [CF] sn: 1    data: 00 00 00 00 00 00 00  -  '.......'[0m
[34m vcan0  7E8  [8]  [CF] sn: 2    data: 00 00 00 00 00 00 00  -  '.......'[0m
[34m vcan0  7E8  [8]  [CF] sn: 3    data: 00 00 00 00 00 00 00  -  '.......'[0m
[34m vcan0  7E8  [8]  [CF] sn: 4    data: 00 00 00 00 00 00 00  -  '.......'[0m
[34m vcan0  7E8  [8]  [CF] sn: 5    data: 00 00 00 00 00 00 00  -  '.......'[0m
[34m vcan0  7E8  [8]  [CF] sn: 6    data: 00 00 00 00 00 00 00  -  '.......'[0m
[34m vcan0  7E8  [8]  [CF] sn: 7    data: 00 00 00 00 00 00 00  -  '.......'[0m
[34m vcan0  7E8  [8]  [CF] sn: 8    data: 00 00 00 00 00 00 00  -  '.......'[0m
[34m vcan0  7E8  [8]  [CF] sn: 9    data: 00 00 00 00 00 00 00  -  '.......'[0m
[34m vcan0  7E8  [8]  [CF] sn: A    data: 00 00 00 00 00 00 00  -  '.......'[0m
[34m vcan0  7E8  [8]  [CF] sn: B    data: 00 00 00 00 00 00 00  -  '.......'[0m
[34m vcan0  7E8  [8]  [CF] sn: C    data: 00 00 00 00 00 00 00  -  '.......'[0m
[34m vcan0  7E8  [8]  [CF] sn: D    data: 00 00 00 00 00 00 00  -  '.......'[0m
[34m vcan0  7E8  [8]  [CF] sn: E    data: 00 00 00 00 00 00 00  -  '.......'[0m
[34m vcan0  7E8  [8]  [CF] sn: F    data: 00 00 00 00 00 00 00  -  '.......'[0m
[34m vcan0  7E8  [8]  [CF] sn: 0    data: 00 00 00 00 00 00 00  -  '.......'[0m
[34m vcan0  7E8  [8]  [CF] sn: 1    data: 00 00 00 00 00 00 00  -  '.......'[0m
[34m vcan0  7E8  [8]  [CF] sn: 2    data: 00 00 00 00 00 00 00  -  '.......'[0m
[31m vcan0  7E0  [8]  [SF] ln: 7    data: 23 14 00 01 AB 00 80  -  '#......' - [SRQ] ReadMemoryByAddress[0m
[34m vcan0  7E8  [8]  [FF] ln: 129  data: 63 00 00 00 00 00     -  'c.....'  - [PSR] ReadMemoryByAddress[0m
[31m vcan0  7E0  [3]  [FC] FC: 0 = CTS # BS: 0 = off # STmin: 0x00 = 0 ms[0m
[34m vcan0  7E8  [8]  [CF] sn: 1    data: 00 00 00 00 00 00 00  -  '.......'[0m
[34m vcan0  7E8  [8]  [CF] sn: 2    data: 00 00 00 00 00 00 00  -  '.......'[0m
[34m vcan0  7E8  [8]  [CF] sn: 3    data: 00 00 00 00 00 00 00  -  '.......'[0m
[34m vcan0  7E8  [8]  [CF] sn: 4    data: 00 00 00 00 00 00 00  -  '.......'[0m
[34m vcan0  7E8  [8]  [CF] sn: 5    data: 00 00 00 00 00 00 00  -  '.......'[0m
[34m vcan0  7E8  [8]  [CF] sn: 6    data: 00 00 00 00 00 00 00  -  '.......'[0m
[34m vcan0  7E8  [8]  [CF] sn: 7    data: 00 00 00 00 00 00 00  -  '.......'[0m
[34m vcan0  7E8  [8]  [CF] sn: 8    data: 00 00 00 00 00 00 00  -  '.......'[0m
[34m vcan0  7E8  [8]  [CF] sn: 9    data: 00 00 00 00 00 00 00  -  '.......'[0m
[34m vcan0  7E8  [8]  [CF] sn: A    data: 00 00 00 00 00 00 00  -  '.......'[0m
[34m vcan0  7E8  [8]  [CF] sn: B    data: 00 00 00 00 00 00 00  -  '.......'[0m
[34m vcan0  7E8  [8]  [CF] sn: C    data: 00 00 00 00 00 00 00  -  '.......'[0m
[34m vcan0  7E8  [8]  [CF] sn: D    data: 00 00 00 00 00 00 00  -  '.......'[0m
[34m vcan0  7E8  [8]  [CF] sn: E    data: 00 00 00 00 00 00 00  -  '.......'[0m
[34m vcan0  7E8  [8]  [CF] sn: F    data: 00 00 00 00 00 00 00  -  '.......'[0m
[34m vcan0  7E8  [8]  [CF] sn: 0    data: 00 00 00 00 00 00 00  -  '.......'[0m
[34m vcan0  7E8  [8]  [CF] sn: 1    data: 00 00 00 00 00 00 00  -  '.......'[0m
[34m vcan0  7E8  [8]  [CF] sn: 2    data: 00 00 00 00 00 00 00  -  '.......'[0m
[31m vcan0  7E0  [8]  [SF] ln: 7    data: 23 14 00 01 AB 80 80  -  '#......' - [SRQ] ReadMemoryByAddress[0m
[34m vcan0  7E8  [8]  [FF] ln: 129  data: 63 00 00 00 00 00     -  'c.....'  - [PSR] ReadMemoryByAddress[0m
[31m vcan0  7E0  [8]  [SF] ln: 7    data: 23 14 00 01 AC 00 80  -  '#......' - [SRQ] ReadMemoryByAddress[0m
[31m vcan0  7E0  [8]  [SF] ln: 7    data: 23 14 00 01 AC 80 80  -  '#......' - [SRQ] ReadMemoryByAddress[0m
[31m vcan0  7E0  [8]  [SF] ln: 7    data: 23 14 00 01 AD 00 80  -  '#......' - [SRQ] ReadMemoryByAddress[0m
[31m vcan0  7E0  [8]  [SF] ln: 7    data: 23 14 00 01 AD 80 80  -  '#......' - [SRQ] ReadMemoryByAddress[0m
[31m vcan0  7E0  [8]  [SF] ln: 7    data: 23 14 00 01 AE 00 80  -  '#......' - [SRQ] ReadMemoryByAddress[0m
[31m vcan0  7E0  [8]  [SF] ln: 7    data: 23 14 00 01 AE 80 80  -  '#......' - [SRQ] ReadMemoryByAddress[0m
[31m vcan0  7E0  [8]  [SF] ln: 7    data: 23 14 00 01 AF 00 80  -  '#......' - [SRQ] ReadMemoryByAddress[0m
[31m vcan0  7E0  [8]  [SF] ln: 7    data: 23 14 00 01 AF 80 80  -  '#......' - [SRQ] ReadMemoryByAddress[0m
[31m vcan0  7E0  [8]  [SF] ln: 7    data: 23 14 00 01 B0 00 80  -  '#......' - [SRQ] ReadMemoryByAddress[0m
[31m vcan0  7E0  [8]  [SF] ln: 7    data: 23 14 00 01 B0 80 80  -  '#......' - [SRQ] ReadMemoryByAddress[0m
[34m vcan0  7E8  [8]  [FF] ln: 129  data: 63 00 00 00 00 00     -  'c.....'  - [PSR] ReadMemoryByAddress[0m
[31m vcan0  7E0  [3]  [FC] FC: 0 = CTS # BS: 0 = off # STmin: 0x00 = 0 ms[0m
[34m vcan0  7E8  [8]  [CF] sn: 1    data: 00 00 00 00 00 00 00  -  '.......'[0m
[34m vcan0  7E8  [8]  [CF] sn: 2    data: 00 00 00 00 00 00 00  -  '.......'[0m
[34m vcan0  7E8  [8]  [CF] sn: 3    data: 00 00 00 00 00 00 00  -  '.......'[0m
[34m vcan0  7E8  [8]  [CF] sn: 4    data: 00 00 00 00 00 00 00  -  '.......'[0m
[34m vcan0  7E8  [8]  [CF] sn: 5    data: 00 00 00 00 00 00 00  -  '.......'[0m
[34m vcan0  7E8  [8]  [CF] sn: 6    data: 00 00 00 00 00 00 00  -  '.......'[0m
[34m vcan0  7E8  [8]  [CF] sn: 7    data: 00 00 00 00 00 00 00  -  '.......'[0m
[34m vcan0  7E8  [8]  [CF] sn: 8    data: 00 00 00 00 00 00 00  -  '.......'[0m
[34m vcan0  7E8  [8]  [CF] sn: 9    data: 00 00 00 00 00 00 00  -  '.......'[0m
[34m vcan0  7E8  [8]  [CF] sn: A    data: 00 00 00 00 00 00 00  -  '.......'[0m
[34m vcan0  7E8  [8]  [CF] sn: B    data: 00 00 00 00 00 00 00  -  '.......'[0m
[34m vcan0  7E8  [8]  [CF] sn: C    data: 00 00 00 00 00 00 00  -  '.......'[0m
[34m vcan0  7E8  [8]  [CF] sn: D    data: 00 00 00 00 00 00 00  -  '.......'[0m
[34m vcan0  7E8  [8]  [CF] sn: E    data: 00 00 00 00 00 00 00  -  '.......'[0m
[34m vcan0  7E8  [8]  [CF] sn: F    data: 00 00 00 00 00 00 00  -  '.......'[0m
[34m vcan0  7E8  [8]  [CF] sn: 0    data: 00 00 00 00 00 00 00  -  '.......'[0m
[34m vcan0  7E8  [8]  [CF] sn: 1    data: 00 00 00 00 00 00 00  -  '.......'[0m
[34m vcan0  7E8  [8]  [CF] sn: 2    data: 00 00 00 00 00 00 00  -  '.......'[0m
[31m vcan0  7E0  [8]  [SF] ln: 7    data: 23 14 00 01 B1 00 80  -  '#......' - [SRQ] ReadMemoryByAddress[0m
[34m vcan0  7E8  [8]  [FF] ln: 129  data: 63 00 00 00 00 00     -  'c.....'  - [PSR] ReadMemoryByAddress[0m
[31m vcan0  7E0  [8]  [SF] ln: 7    data: 23 14 00 01 B1 80 80  -  '#......' - [SRQ] ReadMemoryByAddress[0m
[31m vcan0  7E0  [8]  [SF] ln: 7    data: 23 14 00 01 B2 00 80  -  '#......' - [SRQ] ReadMemoryByAddress[0m
[31m vcan0  7E0  [8]  [SF] ln: 7    data: 23 14 00 01 B2 80 80  -  '#......' - [SRQ] ReadMemoryByAddress[0m
[31m vcan0  7E0  [8]  [SF] ln: 7    data: 23 14 00 01 B3 00 80  -  '#......' - [SRQ] ReadMemoryByAddress[0m
[31m vcan0  7E0  [8]  [SF] ln: 7    data: 23 14 00 01 B3 80 80  -  '#......' - [SRQ] ReadMemoryByAddress[0m
[31m vcan0  7E0  [8]  [SF] ln: 7    data: 23 14 00 01 B4 00 80  -  '#......' - [SRQ] ReadMemoryByAddress[0m
[31m vcan0  7E0  [8]  [SF] ln: 7    data: 23 14 00 01 B4 80 80  -  '#......' - [SRQ] ReadMemoryByAddress[0m
[31m vcan0  7E0  [8]  [SF] ln: 7    data: 23 14 00 01 B5 00 80  -  '#......' - [SRQ] ReadMemoryByAddress[0m
[31m vcan0  7E0  [8]  [SF] ln: 7    data: 23 14 00 01 B5 80 80  -  '#......' - [SRQ] ReadMemoryByAddress[0m
[31m vcan0  7E0  [8]  [SF] ln: 7    data: 23 14 00 01 B6 00 80  -  '#......' - [SRQ] ReadMemoryByAddress[0m
[34m vcan0  7E8  [8]  [FF] ln: 129  data: 63 00 00 00 00 00     -  'c.....'  - [PSR] ReadMemoryByAddress[0m
[31m vcan0  7E0  [8]  [SF] ln: 7    data: 23 14 00 01 B6 80 80  -  '#......' - [SRQ] ReadMemoryByAddress[0m
[31m vcan0  7E0  [8]  [SF] ln: 7    data: 23 14 00 01 B7 00 80  -  '#......' - [SRQ] ReadMemoryByAddress[0m
[31m vcan0  7E0  [8]  [SF] ln: 7    data: 23 14 00 01 B7 80 80  -  '#......' - [SRQ] ReadMemoryByAddress[0m
[31m vcan0  7E0  [8]  [SF] ln: 7    data: 23 14 00 01 B8 00 80  -  '#......' - [SRQ] ReadMemoryByAddress[0m
[31m vcan0  7E0  [8]  [SF] ln: 7    data: 23 14 00 01 B8 80 80  -  '#......' - [SRQ] ReadMemoryByAddress[0m
[31m vcan0  7E0  [8]  [SF] ln: 7    data: 23 14 00 01 B9 00 80  -  '#......' - [SRQ] ReadMemoryByAddress[0m
[31m vcan0  7E0  [8]  [SF] ln: 7    data: 23 14 00 01 B9 80 80  -  '#......' - [SRQ] ReadMemoryByAddress[0m
[31m vcan0  7E0  [8]  [SF] ln: 7    data: 23 14 00 01 BA 00 80  -  '#......' - [SRQ] ReadMemoryByAddress[0m
[31m vcan0  7E0  [8]  [SF] ln: 7    data: 23 14 00 01 BA 80 80  -  '#......' - [SRQ] ReadMemoryByAddress[0m
[31m vcan0  7E0  [8]  [SF] ln: 7    data: 23 14 00 01 BB 00 80  -  '#......' - [SRQ] ReadMemoryByAddress[0m
[34m vcan0  7E8  [8]  [FF] ln: 129  data: 63 00 00 00 00 00     -  'c.....'  - [PSR] ReadMemoryByAddress[0m
[31m vcan0  7E0  [3]  [FC] FC: 0 = CTS # BS: 0 = off # STmin: 0x00 = 0 ms[0m
[34m vcan0  7E8  [8]  [CF] sn: 1    data: 00 00 00 00 00 00 00  -  '.......'[0m
[34m vcan0  7E8  [8]  [CF] sn: 2    data: 00 00 00 00 00 00 00  -  '.......'[0m
[34m vcan0  7E8  [8]  [CF] sn: 3    data: 00 00 00 00 00 00 00  -  '.......'[0m
[34m vcan0  7E8  [8]  [CF] sn: 4    data: 00 00 00 00 00 00 00  -  '.......'[0m
[34m vcan0  7E8  [8]  [CF] sn: 5    data: 00 00 00 00 00 00 00  -  '.......'[0m
[34m vcan0  7E8  [8]  [CF] sn: 6    data: 00 00 00 00 00 00 00  -  '.......'[0m
[34m vcan0  7E8  [8]  [CF] sn: 7    data: 00 00 00 00 00 00 00  -  '.......'[0m
[34m vcan0  7E8  [8]  [CF] sn: 8    data: 00 00 00 00 00 00 00  -  '.......'[0m
[34m vcan0  7E8  [8]  [CF] sn: 9    data: 00 00 00 00 00 00 00  -  '.......'[0m
[34m vcan0  7E8  [8]  [CF] sn: A    data: 00 00 00 00 00 00 00  -  '.......'[0m
[34m vcan0  7E8  [8]  [CF] sn: B    data: 00 00 00 00 00 00 00  -  '.......'[0m
[34m vcan0  7E8  [8]  [CF] sn: C    data: 00 00 00 00 00 00 00  -  '.......'[0m
[34m vcan0  7E8  [8]  [CF] sn: D    data: 00 00 00 00 00 00 00  -  '.......'[0m
[34m vcan0  7E8  [8]  [CF] sn: E    data: 00 00 00 00 00 00 00  -  '.......'[0m
[34m vcan0  7E8  [8]  [CF] sn: F    data: 00 00 00 00 00 00 00  -  '.......'[0m
[34m vcan0  7E8  [8]  [CF] sn: 0    data: 00 00 00 00 00 00 00  -  '.......'[0m
[34m vcan0  7E8  [8]  [CF] sn: 1    data: 00 00 00 00 00 00 00  -  '.......'[0m
[34m vcan0  7E8  [8]  [CF] sn: 2    data: 00 00 00 00 00 00 00  -  '.......'[0m
[31m vcan0  7E0  [8]  [SF] ln: 7    data: 23 14 00 01 BB 80 80  -  '#......' - [SRQ] ReadMemoryByAddress[0m
[34m vcan0  7E8  [8]  [FF] ln: 129  data: 63 00 00 00 00 00     -  'c.....'  - [PSR] ReadMemoryByAddress[0m
[31m vcan0  7E0  [8]  [SF] ln: 7    data: 23 14 00 01 BC 00 80  -  '#......' - [SRQ] ReadMemoryByAddress[0m
[31m vcan0  7E0  [8]  [SF] ln: 7    data: 23 14 00 01 BC 80 80  -  '#......' - [SRQ] ReadMemoryByAddress[0m
[31m vcan0  7E0  [8]  [SF] ln: 7    data: 23 14 00 01 BD 00 80  -  '#......' - [SRQ] ReadMemoryByAddress[0m
[31m vcan0  7E0  [8]  [SF] ln: 7    data: 23 14 00 01 BD 80 80  -  '#......' - [SRQ] ReadMemoryByAddress[0m
[31m vcan0  7E0  [8]  [SF] ln: 7    data: 23 14 00 01 BE 00 80  -  '#......' - [SRQ] ReadMemoryByAddress[0m
[31m vcan0  7E0  [8]  [SF] ln: 7    data: 23 14 00 01 BE 80 80  -  '#......' - [SRQ] ReadMemoryByAddress[0m
[31m vcan0  7E0  [8]  [SF] ln: 7    data: 23 14 00 01 BF 00 80  -  '#......' - [SRQ] ReadMemoryByAddress[0m
[31m vcan0  7E0  [8]  [SF] ln: 7    data: 23 14 00 01 BF 80 80  -  '#......' - [SRQ] ReadMemoryByAddress[0m
[31m vcan0  7E0  [8]  [SF] ln: 7    data: 23 14 00 01 C0 00 80  -  '#......' - [SRQ] ReadMemoryByAddress[0m
[31m vcan0  7E0  [8]  [SF] ln: 7    data: 23 14 00 01 C0 80 80  -  '#......' - [SRQ] ReadMemoryByAddress[0m
[34m vcan0  7E8  [8]  [SF] ln: 3    data: 7F 23 31 00 00 00 00  -  '.#1....' - [NRC] requestOutOfRange[0m
[31m vcan0  7E0  [8]  [SF] ln: 7    data: 23 14 00 01 C1 00 80  -  '#......' - [SRQ] ReadMemoryByAddress[0m
[34m vcan0  7E8  [8]  [SF] ln: 3    data: 7F 23 31 00 00 00 00  -  '.#1....' - [NRC] requestOutOfRange[0m
[31m vcan0  7E0  [8]  [SF] ln: 7    data: 23 14 00 01 C1 80 80  -  '#......' - [SRQ] ReadMemoryByAddress[0m
[34m vcan0  7E8  [8]  [SF] ln: 3    data: 7F 23 31 00 00 00 00  -  '.#1....' - [NRC] requestOutOfRange[0m
[31m vcan0  7E0  [8]  [SF] ln: 7    data: 23 14 00 01 C2 00 80  -  '#......' - [SRQ] ReadMemoryByAddress[0m
[34m vcan0  7E8  [8]  [SF] ln: 3    data: 7F 23 31 00 00 00 00  -  '.#1....' - [NRC] requestOutOfRange[0m
[31m vcan0  7E0  [8]  [SF] ln: 7    data: 23 14 00 01 C2 80 80  -  '#......' - [SRQ] ReadMemoryByAddress[0m
[34m vcan0  7E8  [8]  [SF] ln: 3    data: 7F 23 31 00 00 00 00  -  '.#1....' - [NRC] requestOutOfRange[0m
[31m vcan0  7E0  [8]  [SF] ln: 7    data: 23 14 00 01 C3 00 80  -  '#......' - [SRQ] ReadMemoryByAddress[0m
[34m vcan0  7E8  [8]  [SF] ln: 3    data: 7F 23 31 00 00 00 00  -  '.#1....' - [NRC] requestOutOfRange[0m
[31m vcan0  7E0  [8]  [SF] ln: 7    data: 23 14 00 01 C3 80 80  -  '#......' - [SRQ] ReadMemoryByAddress[0m
[34m vcan0  7E8  [8]  [SF] ln: 3    data: 7F 23 31 00 00 00 00  -  '.#1....' - [NRC] requestOutOfRange[0m
[31m vcan0  7E0  [8]  [SF] ln: 7    data: 23 14 00 01 C4 00 80  -  '#......' - [SRQ] ReadMemoryByAddress[0m
[34m vcan0  7E8  [8]  [SF] ln: 3    data: 7F 23 31 00 00 00 00  -  '.#1....' - [NRC] requestOutOfRange[0m
[31m vcan0  7E0  [8]  [SF] ln: 7    data: 23 14 00 01 C4 80 80  -  '#......' - [SRQ] ReadMemoryByAddress[0m
[34m vcan0  7E8  [8]  [SF] ln: 3    data: 7F 23 31 00 00 00 00  -  '.#1....' - [NRC] requestOutOfRange[0m
[31m vcan0  7E0  [8]  [SF] ln: 7    data: 23 14 00 01 C5 00 80  -  '#......' - [SRQ] ReadMemoryByAddress[0m
[34m vcan0  7E8  [8]  [SF] ln: 3    data: 7F 23 31 00 00 00 00  -  '.#1....' - [NRC] requestOutOfRange[0m
[31m vcan0  7E0  [8]  [SF] ln: 7    data: 23 14 00 01 C5 80 80  -  '#......' - [SRQ] ReadMemoryByAddress[0m
[34m vcan0  7E8  [8]  [SF] ln: 3    data: 7F 23 31 00 00 00 00  -  '.#1....' - [NRC] requestOutOfRange[0m
[31m vcan0  7E0  [8]  [SF] ln: 7    data: 23 14 00 01 C6 00 80  -  '#......' - [SRQ] ReadMemoryByAddress[0m
[34m vcan0  7E8  [8]  [SF] ln: 3    data: 7F 23 31 00 00 00 00  -  '.#1....' - [NRC] requestOutOfRange[0m
[31m vcan0  7E0  [8]  [SF] ln: 7    data: 23 14 00 01 C6 80 80  -  '#......' - [SRQ] ReadMemoryByAddress[0m
[34m vcan0  7E8  [8]  [SF] ln: 3    data: 7F 23 31 00 00 00 00  -  '.#1....' - [NRC] requestOutOfRange[0m
[31m vcan0  7E0  [8]  [SF] ln: 7    data: 23 14 00 01 C7 00 80  -  '#......' - [SRQ] ReadMemoryByAddress[0m
[34m vcan0  7E8  [8]  [SF] ln: 3    data: 7F 23 31 00 00 00 00  -  '.#1....' - [NRC] requestOutOfRange[0m
[31m vcan0  7E0  [8]  [SF] ln: 7    data: 23 14 00 01 C7 80 80  -  '#......' - [SRQ] ReadMemoryByAddress[0m
[34m vcan0  7E8  [8]  [SF] ln: 3    data: 7F 23 31 00 00 00 00  -  '.#1....' - [NRC] requestOutOfRange[0m
[31m vcan0  7E0  [8]  [SF] ln: 7    data: 23 14 00 01 C8 00 80  -  '#......' - [SRQ] ReadMemoryByAddress[0m
[34m vcan0  7E8  [8]  [SF] ln: 3    data: 7F 23 31 00 00 00 00  -  '.#1....' - [NRC] requestOutOfRange[0m
[31m vcan0  7E0  [8]  [SF] ln: 7    data: 23 14 00 01 C8 80 80  -  '#......' - [SRQ] ReadMemoryByAddress[0m
[34m vcan0  7E8  [8]  [SF] ln: 3    data: 7F 23 31 00 00 00 00  -  '.#1....' - [NRC] requestOutOfRange[0m
[31m vcan0  7E0  [8]  [SF] ln: 7    data: 23 14 00 01 C9 00 80  -  '#......' - [SRQ] ReadMemoryByAddress[0m
[34m vcan0  7E8  [8]  [SF] ln: 3    data: 7F 23 31 00 00 00 00  -  '.#1....' - [NRC] requestOutOfRange[0m
[31m vcan0  7E0  [8]  [SF] ln: 7    data: 23 14 00 01 C9 80 80  -  '#......' - [SRQ] ReadMemoryByAddress[0m
[34m vcan0  7E8  [8]  [SF] ln: 3    data: 7F 23 31 00 00 00 00  -  '.#1....' - [NRC] requestOutOfRange[0m
[31m vcan0  7E0  [8]  [SF] ln: 7    data: 23 14 00 01 CA 00 80  -  '#......' - [SRQ] ReadMemoryByAddress[0m
[34m vcan0  7E8  [8]  [SF] ln: 3    data: 7F 23 31 00 00 00 00  -  '.#1....' - [NRC] requestOutOfRange[0m
[31m vcan0  7E0  [8]  [SF] ln: 7    data: 23 14 00 01 CA 80 80  -  '#......' - [SRQ] ReadMemoryByAddress[0m
[34m vcan0  7E8  [8]  [SF] ln: 3    data: 7F 23 31 00 00 00 00  -  '.#1....' - [NRC] requestOutOfRange[0m
[31m vcan0  7E0  [8]  [SF] ln: 7    data: 23 14 00 01 CB 00 80  -  '#......' - [SRQ] ReadMemoryByAddress[0m
[34m vcan0  7E8  [8]  [SF] ln: 3    data: 7F 23 31 00 00 00 00  -  '.#1....' - [NRC] requestOutOfRange[0m
[31m vcan0  7E0  [8]  [SF] ln: 7    data: 23 14 00 01 CB 80 80  -  '#......' - [SRQ] ReadMemoryByAddress[0m
[34m vcan0  7E8  [8]  [SF] ln: 3    data: 7F 23 31 00 00 00 00  -  '.#1....' - [NRC] requestOutOfRange[0m
[31m vcan0  7E0  [8]  [SF] ln: 7    data: 23 14 00 01 CC 00 80  -  '#......' - [SRQ] ReadMemoryByAddress[0m
[34m vcan0  7E8  [8]  [SF] ln: 3    data: 7F 23 31 00 00 00 00  -  '.#1....' - [NRC] requestOutOfRange[0m
[31m vcan0  7E0  [8]  [SF] ln: 7    data: 23 14 00 01 CC 80 80  -  '#......' - [SRQ] ReadMemoryByAddress[0m
[34m vcan0  7E8  [8]  [SF] ln: 3    data: 7F 23 31 00 00 00 00  -  '.#1....' - [NRC] requestOutOfRange[0m
[31m vcan0  7E0  [8]  [SF] ln: 7    data: 23 14 00 01 CD 00 80  -  '#......' - [SRQ] ReadMemoryByAddress[0m
[34m vcan0  7E8  [8]  [SF] ln: 3    data: 7F 23 31 00 00 00 00  -  '.#1....' - [NRC] requestOutOfRange[0m
[31m vcan0  7E0  [8]  [SF] ln: 7    data: 23 14 00 01 CD 80 80  -  '#......' - [SRQ] ReadMemoryByAddress[0m
[34m vcan0  7E8  [8]  [SF] ln: 3    data: 7F 23 31 00 00 00 00  -  '.#1....' - [NRC] requestOutOfRange[0m
[31m vcan0  7E0  [8]  [SF] ln: 7    data: 23 14 00 01 CE 00 80  -  '#......' - [SRQ] ReadMemoryByAddress[0m
[34m vcan0  7E8  [8]  [SF] ln: 3    data: 7F 23 31 00 00 00 00  -  '.#1....' - [NRC] requestOutOfRange[0m
[31m vcan0  7E0  [8]  [SF] ln: 7    data: 23 14 00 01 CE 80 80  -  '#......' - [SRQ] ReadMemoryByAddress[0m
[34m vcan0  7E8  [8]  [SF] ln: 3    data: 7F 23 31 00 00 00 00  -  '.#1....' - [NRC] requestOutOfRange[0m
[31m vcan0  7E0  [8]  [SF] ln: 7    data: 23 14 00 01 CF 00 80  -  '#......' - [SRQ] ReadMemoryByAddress[0m
[34m vcan0  7E8  [8]  [SF] ln: 3    data: 7F 23 31 00 00 00 00  -  '.#1....' - [NRC] requestOutOfRange[0m
[31m vcan0  7E0  [8]  [SF] ln: 7    data: 23 14 00 01 CF 80 80  -  '#......' - [SRQ] ReadMemoryByAddress[0m
[34m vcan0  7E8  [8]  [SF] ln: 3    data: 7F 23 31 00 00 00 00  -  '.#1....' - [NRC] requestOutOfRange[0m
[31m vcan0  7E0  [8]  [SF] ln: 7    data: 23 14 00 01 D0 00 80  -  '#......' - [SRQ] ReadMemoryByAddress[0m
[34m vcan0  7E8  [8]  [SF] ln: 3    data: 7F 23 31 00 00 00 00  -  '.#1....' - [NRC] requestOutOfRange[0m
[31m vcan0  7E0  [8]  [SF] ln: 7    data: 23 14 00 01 D0 80 80  -  '#......' - [SRQ] ReadMemoryByAddress[0m
[34m vcan0  7E8  [8]  [SF] ln: 3    data: 7F 23 31 00 00 00 00  -  '.#1....' - [NRC] requestOutOfRange[0m
[31m vcan0  7E0  [8]  [SF] ln: 7    data: 23 14 00 01 D1 00 80  -  '#......' - [SRQ] ReadMemoryByAddress[0m
[34m vcan0  7E8  [8]  [SF] ln: 3    data: 7F 23 31 00 00 00 00  -  '.#1....' - [NRC] requestOutOfRange[0m
[31m vcan0  7E0  [8]  [SF] ln: 7    data: 23 14 00 01 D1 80 80  -  '#......' - [SRQ] ReadMemoryByAddress[0m
[34m vcan0  7E8  [8]  [SF] ln: 3    data: 7F 23 31 00 00 00 00  -  '.#1....' - [NRC] requestOutOfRange[0m
[31m vcan0  7E0  [8]  [SF] ln: 7    data: 23 14 00 01 D2 00 80  -  '#......' - [SRQ] ReadMemoryByAddress[0m
[34m vcan0  7E8  [8]  [SF] ln: 3    data: 7F 23 31 00 00 00 00  -  '.#1....' - [NRC] requestOutOfRange[0m
[31m vcan0  7E0  [8]  [SF] ln: 7    data: 23 14 00 01 D2 80 80  -  '#......' - [SRQ] ReadMemoryByAddress[0m
[34m vcan0  7E8  [8]  [SF] ln: 3    data: 7F 23 31 00 00 00 00  -  '.#1....' - [NRC] requestOutOfRange[0m
[31m vcan0  7E0  [8]  [SF] ln: 7    data: 23 14 00 01 D3 00 80  -  '#......' - [SRQ] ReadMemoryByAddress[0m
[34m vcan0  7E8  [8]  [SF] ln: 3    data: 7F 23 31 00 00 00 00  -  '.#1....' - [NRC] requestOutOfRange[0m
[31m vcan0  7E0  [8]  [SF] ln: 7    data: 23 14 00 01 D3 80 80  -  '#......' - [SRQ] ReadMemoryByAddress[0m
[34m vcan0  7E8  [8]  [SF] ln: 3    data: 7F 23 31 00 00 00 00  -  '.#1....' - [NRC] requestOutOfRange[0m
[31m vcan0  7E0  [8]  [SF] ln: 7    data: 23 14 00 01 D4 00 80  -  '#......' - [SRQ] ReadMemoryByAddress[0m
[34m vcan0  7E8  [8]  [SF] ln: 3    data: 7F 23 31 00 00 00 00  -  '.#1....' - [NRC] requestOutOfRange[0m
[31m vcan0  7E0  [8]  [SF] ln: 7    data: 23 14 00 01 D4 80 80  -  '#......' - [SRQ] ReadMemoryByAddress[0m
[34m vcan0  7E8  [8]  [SF] ln: 3    data: 7F 23 31 00 00 00 00  -  '.#1....' - [NRC] requestOutOfRange[0m
[31m vcan0  7E0  [8]  [SF] ln: 7    data: 23 14 00 01 D5 00 80  -  '#......' - [SRQ] ReadMemoryByAddress[0m
[34m vcan0  7E8  [8]  [SF] ln: 3    data: 7F 23 31 00 00 00 00  -  '.#1....' - [NRC] requestOutOfRange[0m
[31m vcan0  7E0  [8]  [SF] ln: 7    data: 23 14 00 01 D5 80 80  -  '#......' - [SRQ] ReadMemoryByAddress[0m
[34m vcan0  7E8  [8]  [SF] ln: 3    data: 7F 23 31 00 00 00 00  -  '.#1....' - [NRC] requestOutOfRange[0m
[31m vcan0  7E0  [8]  [SF] ln: 7    data: 23 14 00 01 D6 00 80  -  '#......' - [SRQ] ReadMemoryByAddress[0m
[34m vcan0  7E8  [8]  [SF] ln: 3    data: 7F 23 31 00 00 00 00  -  '.#1....' - [NRC] requestOutOfRange[0m
[31m vcan0  7E0  [8]  [SF] ln: 7    data: 23 14 00 01 D6 80 80  -  '#......' - [SRQ] ReadMemoryByAddress[0m
[34m vcan0  7E8  [8]  [SF] ln: 3    data: 7F 23 31 00 00 00 00  -  '.#1....' - [NRC] requestOutOfRange[0m
[31m vcan0  7E0  [8]  [SF] ln: 7    data: 23 14 00 01 D7 00 80  -  '#......' - [SRQ] ReadMemoryByAddress[0m
[34m vcan0  7E8  [8]  [SF] ln: 3    data: 7F 23 31 00 00 00 00  -  '.#1....' - [NRC] requestOutOfRange[0m
[31m vcan0  7E0  [8]  [SF] ln: 7    data: 23 14 00 01 D7 80 80  -  '#......' - [SRQ] ReadMemoryByAddress[0m
[34m vcan0  7E8  [8]  [SF] ln: 3    data: 7F 23 31 00 00 00 00  -  '.#1....' - [NRC] requestOutOfRange[0m
[31m vcan0  7E0  [8]  [SF] ln: 7    data: 23 14 00 01 D8 00 80  -  '#......' - [SRQ] ReadMemoryByAddress[0m
[34m vcan0  7E8  [8]  [SF] ln: 3    data: 7F 23 31 00 00 00 00  -  '.#1....' - [NRC] requestOutOfRange[0m
[31m vcan0  7E0  [8]  [SF] ln: 7    data: 23 14 00 01 D8 80 80  -  '#......' - [SRQ] ReadMemoryByAddress[0m
[34m vcan0  7E8  [8]  [SF] ln: 3    data: 7F 23 31 00 00 00 00  -  '.#1....' - [NRC] requestOutOfRange[0m
[31m vcan0  7E0  [8]  [SF] ln: 7    data: 23 14 00 01 D9 00 80  -  '#......' - [SRQ] ReadMemoryByAddress[0m
[34m vcan0  7E8  [8]  [SF] ln: 3    data: 7F 23 31 00 00 00 00  -  '.#1....' - [NRC] requestOutOfRange[0m
[31m vcan0  7E0  [8]  [SF] ln: 7    data: 23 14 00 01 D9 80 80  -  '#......' - [SRQ] ReadMemoryByAddress[0m
[34m vcan0  7E8  [8]  [SF] ln: 3    data: 7F 23 31 00 00 00 00  -  '.#1....' - [NRC] requestOutOfRange[0m
[31m vcan0  7E0  [8]  [SF] ln: 7    data: 23 14 00 01 DA 00 80  -  '#......' - [SRQ] ReadMemoryByAddress[0m
[34m vcan0  7E8  [8]  [SF] ln: 3    data: 7F 23 31 00 00 00 00  -  '.#1....' - [NRC] requestOutOfRange[0m
[31m vcan0  7E0  [8]  [SF] ln: 7    data: 23 14 00 01 DA 80 80  -  '#......' - [SRQ] ReadMemoryByAddress[0m
[34m vcan0  7E8  [8]  [SF] ln: 3    data: 7F 23 31 00 00 00 00  -  '.#1....' - [NRC] requestOutOfRange[0m
[31m vcan0  7E0  [8]  [SF] ln: 7    data: 23 14 00 01 DB 00 80  -  '#......' - [SRQ] ReadMemoryByAddress[0m
[34m vcan0  7E8  [8]  [SF] ln: 3    data: 7F 23 31 00 00 00 00  -  '.#1....' - [NRC] requestOutOfRange[0m
[31m vcan0  7E0  [8]  [SF] ln: 7    data: 23 14 00 01 DB 80 80  -  '#......' - [SRQ] ReadMemoryByAddress[0m
[34m vcan0  7E8  [8]  [SF] ln: 3    data: 7F 23 31 00 00 00 00  -  '.#1....' - [NRC] requestOutOfRange[0m
[31m vcan0  7E0  [8]  [SF] ln: 7    data: 23 14 00 01 DC 00 80  -  '#......' - [SRQ] ReadMemoryByAddress[0m
[34m vcan0  7E8  [8]  [SF] ln: 3    data: 7F 23 31 00 00 00 00  -  '.#1....' - [NRC] requestOutOfRange[0m
[31m vcan0  7E0  [8]  [SF] ln: 7    data: 23 14 00 01 DC 80 80  -  '#......' - [SRQ] ReadMemoryByAddress[0m
[34m vcan0  7E8  [8]  [SF] ln: 3    data: 7F 23 31 00 00 00 00  -  '.#1....' - [NRC] requestOutOfRange[0m
[31m vcan0  7E0  [8]  [SF] ln: 7    data: 23 14 00 01 DD 00 80  -  '#......' - [SRQ] ReadMemoryByAddress[0m
[34m vcan0  7E8  [8]  [SF] ln: 3    data: 7F 23 31 00 00 00 00  -  '.#1....' - [NRC] requestOutOfRange[0m
[31m vcan0  7E0  [8]  [SF] ln: 7    data: 23 14 00 01 DD 80 80  -  '#......' - [SRQ] ReadMemoryByAddress[0m
[34m vcan0  7E8  [8]  [SF] ln: 3    data: 7F 23 31 00 00 00 00  -  '.#1....' - [NRC] requestOutOfRange[0m
[31m vcan0  7E0  [8]  [SF] ln: 7    data: 23 14 00 01 DE 00 80  -  '#......' - [SRQ] ReadMemoryByAddress[0m
[34m vcan0  7E8  [8]  [SF] ln: 3    data: 7F 23 31 00 00 00 00  -  '.#1....' - [NRC] requestOutOfRange[0m
[31m vcan0  7E0  [8]  [SF] ln: 7    data: 23 14 00 01 DE 80 80  -  '#......' - [SRQ] ReadMemoryByAddress[0m
[34m vcan0  7E8  [8]  [SF] ln: 3    data: 7F 23 31 00 00 00 00  -  '.#1....' - [NRC] requestOutOfRange[0m
[31m vcan0  7E0  [8]  [SF] ln: 7    data: 23 14 00 01 DF 00 80  -  '#......' - [SRQ] ReadMemoryByAddress[0m
[34m vcan0  7E8  [8]  [SF] ln: 3    data: 7F 23 31 00 00 00 00  -  '.#1....' - [NRC] requestOutOfRange[0m
[31m vcan0  7E0  [8]  [SF] ln: 7    data: 23 14 00 01 DF 80 80  -  '#......' - [SRQ] ReadMemoryByAddress[0m
[34m vcan0  7E8  [8]  [SF] ln: 3    data: 7F 23 31 00 00 00 00  -  '.#1....' - [NRC] requestOutOfRange[0m
[31m vcan0  7E0  [8]  [SF] ln: 7    data: 23 14 00 01 E0 00 80  -  '#......' - [SRQ] ReadMemoryByAddress[0m
[34m vcan0  7E8  [8]  [SF] ln: 3    data: 7F 23 31 00 00 00 00  -  '.#1....' - [NRC] requestOutOfRange[0m
[31m vcan0  7E0  [8]  [SF] ln: 7    data: 23 14 00 01 E0 80 80  -  '#......' - [SRQ] ReadMemoryByAddress[0m
[34m vcan0  7E8  [8]  [SF] ln: 3    data: 7F 23 31 00 00 00 00  -  '.#1....' - [NRC] requestOutOfRange[0m
[31m vcan0  7E0  [8]  [SF] ln: 7    data: 23 14 00 01 E1 00 80  -  '#......' - [SRQ] ReadMemoryByAddress[0m
[34m vcan0  7E8  [8]  [SF] ln: 3    data: 7F 23 31 00 00 00 00  -  '.#1....' - [NRC] requestOutOfRange[0m
[31m vcan0  7E0  [8]  [SF] ln: 7    data: 23 14 00 01 E1 80 80  -  '#......' - [SRQ] ReadMemoryByAddress[0m
[34m vcan0  7E8  [8]  [SF] ln: 3    data: 7F 23 31 00 00 00 00  -  '.#1....' - [NRC] requestOutOfRange[0m
[31m vcan0  7E0  [8]  [SF] ln: 7    data: 23 14 00 01 E2 00 80  -  '#......' - [SRQ] ReadMemoryByAddress[0m
[34m vcan0  7E8  [8]  [SF] ln: 3    data: 7F 23 31 00 00 00 00  -  '.#1....' - [NRC] requestOutOfRange[0m
[31m vcan0  7E0  [8]  [SF] ln: 7    data: 23 14 00 01 E2 80 80  -  '#......' - [SRQ] ReadMemoryByAddress[0m
[34m vcan0  7E8  [8]  [SF] ln: 3    data: 7F 23 31 00 00 00 00  -  '.#1....' - [NRC] requestOutOfRange[0m
[31m vcan0  7E0  [8]  [SF] ln: 7    data: 23 14 00 01 E3 00 80  -  '#......' - [SRQ] ReadMemoryByAddress[0m
[34m vcan0  7E8  [8]  [SF] ln: 3    data: 7F 23 31 00 00 00 00  -  '.#1....' - [NRC] requestOutOfRange[0m
[31m vcan0  7E0  [8]  [SF] ln: 7    data: 23 14 00 01 E3 80 80  -  '#......' - [SRQ] ReadMemoryByAddress[0m
[34m vcan0  7E8  [8]  [SF] ln: 3    data: 7F 23 31 00 00 00 00  -  '.#1....' - [NRC] requestOutOfRange[0m
[31m vcan0  7E0  [8]  [SF] ln: 7    data: 23 14 00 01 E4 00 80  -  '#......' - [SRQ] ReadMemoryByAddress[0m
[34m vcan0  7E8  [8]  [SF] ln: 3    data: 7F 23 31 00 00 00 00  -  '.#1....' - [NRC] requestOutOfRange[0m
[31m vcan0  7E0  [8]  [SF] ln: 7    data: 23 14 00 01 E4 80 80  -  '#......' - [SRQ] ReadMemoryByAddress[0m
[34m vcan0  7E8  [8]  [SF] ln: 3    data: 7F 23 31 00 00 00 00  -  '.#1....' - [NRC] requestOutOfRange[0m
[31m vcan0  7E0  [8]  [SF] ln: 7    data: 23 14 00 01 E5 00 80  -  '#......' - [SRQ] ReadMemoryByAddress[0m
[34m vcan0  7E8  [8]  [SF] ln: 3    data: 7F 23 31 00 00 00 00  -  '.#1....' - [NRC] requestOutOfRange[0m
[31m vcan0  7E0  [8]  [SF] ln: 7    data: 23 14 00 01 E5 80 80  -  '#......' - [SRQ] ReadMemoryByAddress[0m
[34m vcan0  7E8  [8]  [SF] ln: 3    data: 7F 23 31 00 00 00 00  -  '.#1....' - [NRC] requestOutOfRange[0m
[31m vcan0  7E0  [8]  [SF] ln: 7    data: 23 14 00 01 E6 00 80  -  '#......' - [SRQ] ReadMemoryByAddress[0m
[34m vcan0  7E8  [8]  [SF] ln: 3    data: 7F 23 31 00 00 00 00  -  '.#1....' - [NRC] requestOutOfRange[0m
[31m vcan0  7E0  [8]  [SF] ln: 7    data: 23 14 00 01 E6 80 80  -  '#......' - [SRQ] ReadMemoryByAddress[0m
[34m vcan0  7E8  [8]  [SF] ln: 3    data: 7F 23 31 00 00 00 00  -  '.#1....' - [NRC] requestOutOfRange[0m
[31m vcan0  7E0  [8]  [SF] ln: 7    data: 23 14 00 01 E7 00 80  -  '#......' - [SRQ] ReadMemoryByAddress[0m
[34m vcan0  7E8  [8]  [SF] ln: 3    data: 7F 23 31 00 00 00 00  -  '.#1....' - [NRC] requestOutOfRange[0m
[31m vcan0  7E0  [8]  [SF] ln: 7    data: 23 14 00 01 E7 80 80  -  '#......' - [SRQ] ReadMemoryByAddress[0m
[34m vcan0  7E8  [8]  [SF] ln: 3    data: 7F 23 31 00 00 00 00  -  '.#1....' - [NRC] requestOutOfRange[0m
[31m vcan0  7E0  [8]  [SF] ln: 7    data: 23 14 00 01 E8 00 80  -  '#......' - [SRQ] ReadMemoryByAddress[0m
[34m vcan0  7E8  [8]  [SF] ln: 3    data: 7F 23 31 00 00 00 00  -  '.#1....' - [NRC] requestOutOfRange[0m
[31m vcan0  7E0  [8]  [SF] ln: 7    data: 23 14 00 01 E8 80 80  -  '#......' - [SRQ] ReadMemoryByAddress[0m
[34m vcan0  7E8  [8]  [SF] ln: 3    data: 7F 23 31 00 00 00 00  -  '.#1....' - [NRC] requestOutOfRange[0m
[31m vcan0  7E0  [8]  [SF] ln: 7    data: 23 14 00 01 E9 00 80  -  '#......' - [SRQ] ReadMemoryByAddress[0m
[34m vcan0  7E8  [8]  [SF] ln: 3    data: 7F 23 31 00 00 00 00  -  '.#1....' - [NRC] requestOutOfRange[0m
[31m vcan0  7E0  [8]  [SF] ln: 7    data: 23 14 00 01 E9 80 80  -  '#......' - [SRQ] ReadMemoryByAddress[0m
[34m vcan0  7E8  [8]  [SF] ln: 3    data: 7F 23 31 00 00 00 00  -  '.#1....' - [NRC] requestOutOfRange[0m
[31m vcan0  7E0  [8]  [SF] ln: 7    data: 23 14 00 01 EA 00 80  -  '#......' - [SRQ] ReadMemoryByAddress[0m
[34m vcan0  7E8  [8]  [SF] ln: 3    data: 7F 23 31 00 00 00 00  -  '.#1....' - [NRC] requestOutOfRange[0m
[31m vcan0  7E0  [8]  [SF] ln: 7    data: 23 14 00 01 EA 80 80  -  '#......' - [SRQ] ReadMemoryByAddress[0m
[34m vcan0  7E8  [8]  [SF] ln: 3    data: 7F 23 31 00 00 00 00  -  '.#1....' - [NRC] requestOutOfRange[0m
[31m vcan0  7E0  [8]  [SF] ln: 7    data: 23 14 00 01 EB 00 80  -  '#......' - [SRQ] ReadMemoryByAddress[0m
[34m vcan0  7E8  [8]  [SF] ln: 3    data: 7F 23 31 00 00 00 00  -  '.#1....' - [NRC] requestOutOfRange[0m
[31m vcan0  7E0  [8]  [SF] ln: 7    data: 23 14 00 01 EB 80 80  -  '#......' - [SRQ] ReadMemoryByAddress[0m
[34m vcan0  7E8  [8]  [SF] ln: 3    data: 7F 23 31 00 00 00 00  -  '.#1....' - [NRC] requestOutOfRange[0m
[31m vcan0  7E0  [8]  [SF] ln: 7    data: 23 14 00 01 EC 00 80  -  '#......' - [SRQ] ReadMemoryByAddress[0m
[34m vcan0  7E8  [8]  [SF] ln: 3    data: 7F 23 31 00 00 00 00  -  '.#1....' - [NRC] requestOutOfRange[0m
[31m vcan0  7E0  [8]  [SF] ln: 7    data: 23 14 00 01 EC 80 80  -  '#......' - [SRQ] ReadMemoryByAddress[0m
[34m vcan0  7E8  [8]  [SF] ln: 3    data: 7F 23 31 00 00 00 00  -  '.#1....' - [NRC] requestOutOfRange[0m
[31m vcan0  7E0  [8]  [SF] ln: 7    data: 23 14 00 01 ED 00 80  -  '#......' - [SRQ] ReadMemoryByAddress[0m
[34m vcan0  7E8  [8]  [SF] ln: 3    data: 7F 23 31 00 00 00 00  -  '.#1....' - [NRC] requestOutOfRange[0m
[31m vcan0  7E0  [8]  [SF] ln: 7    data: 23 14 00 01 ED 80 80  -  '#......' - [SRQ] ReadMemoryByAddress[0m
[34m vcan0  7E8  [8]  [SF] ln: 3    data: 7F 23 31 00 00 00 00  -  '.#1....' - [NRC] requestOutOfRange[0m
[31m vcan0  7E0  [8]  [SF] ln: 7    data: 23 14 00 01 EE 00 80  -  '#......' - [SRQ] ReadMemoryByAddress[0m
[34m vcan0  7E8  [8]  [SF] ln: 3    data: 7F 23 31 00 00 00 00  -  '.#1....' - [NRC] requestOutOfRange[0m
[31m vcan0  7E0  [8]  [SF] ln: 7    data: 23 14 00 01 EE 80 80  -  '#......' - [SRQ] ReadMemoryByAddress[0m
[34m vcan0  7E8  [8]  [SF] ln: 3    data: 7F 23 31 00 00 00 00  -  '.#1....' - [NRC] requestOutOfRange[0m
[31m vcan0  7E0  [8]  [SF] ln: 7    data: 23 14 00 01 EF 00 80  -  '#......' - [SRQ] ReadMemoryByAddress[0m
[34m vcan0  7E8  [8]  [SF] ln: 3    data: 7F 23 31 00 00 00 00  -  '.#1....' - [NRC] requestOutOfRange[0m
[31m vcan0  7E0  [8]  [SF] ln: 7    data: 23 14 00 01 EF 80 80  -  '#......' - [SRQ] ReadMemoryByAddress[0m
[34m vcan0  7E8  [8]  [SF] ln: 3    data: 7F 23 31 00 00 00 00  -  '.#1....' - [NRC] requestOutOfRange[0m
[31m vcan0  7E0  [8]  [SF] ln: 7    data: 23 14 00 01 F0 00 80  -  '#......' - [SRQ] ReadMemoryByAddress[0m
[34m vcan0  7E8  [8]  [SF] ln: 3    data: 7F 23 31 00 00 00 00  -  '.#1....' - [NRC] requestOutOfRange[0m
[31m vcan0  7E0  [8]  [SF] ln: 7    data: 23 14 00 01 F0 80 80  -  '#......' - [SRQ] ReadMemoryByAddress[0m
[34m vcan0  7E8  [8]  [SF] ln: 3    data: 7F 23 31 00 00 00 00  -  '.#1....' - [NRC] requestOutOfRange[0m
[31m vcan0  7E0  [8]  [SF] ln: 7    data: 23 14 00 01 F1 00 80  -  '#......' - [SRQ] ReadMemoryByAddress[0m
[34m vcan0  7E8  [8]  [SF] ln: 3    data: 7F 23 31 00 00 00 00  -  '.#1....' - [NRC] requestOutOfRange[0m
[31m vcan0  7E0  [8]  [SF] ln: 7    data: 23 14 00 01 F1 80 80  -  '#......' - [SRQ] ReadMemoryByAddress[0m
[34m vcan0  7E8  [8]  [SF] ln: 3    data: 7F 23 31 00 00 00 00  -  '.#1....' - [NRC] requestOutOfRange[0m
[31m vcan0  7E0  [8]  [SF] ln: 7    data: 23 14 00 01 F2 00 80  -  '#......' - [SRQ] ReadMemoryByAddress[0m
[34m vcan0  7E8  [8]  [SF] ln: 3    data: 7F 23 31 00 00 00 00  -  '.#1....' - [NRC] requestOutOfRange[0m
[31m vcan0  7E0  [8]  [SF] ln: 7    data: 23 14 00 01 F2 80 80  -  '#......' - [SRQ] ReadMemoryByAddress[0m
[34m vcan0  7E8  [8]  [SF] ln: 3    data: 7F 23 31 00 00 00 00  -  '.#1....' - [NRC] requestOutOfRange[0m
[31m vcan0  7E0  [8]  [SF] ln: 7    data: 23 14 00 01 F3 00 80  -  '#......' - [SRQ] ReadMemoryByAddress[0m
[34m vcan0  7E8  [8]  [SF] ln: 3    data: 7F 23 31 00 00 00 00  -  '.#1....' - [NRC] requestOutOfRange[0m
[31m vcan0  7E0  [8]  [SF] ln: 7    data: 23 14 00 01 F3 80 80  -  '#......' - [SRQ] ReadMemoryByAddress[0m
[34m vcan0  7E8  [8]  [SF] ln: 3    data: 7F 23 31 00 00 00 00  -  '.#1....' - [NRC] requestOutOfRange[0m
[31m vcan0  7E0  [8]  [SF] ln: 7    data: 23 14 00 01 F4 00 80  -  '#......' - [SRQ] ReadMemoryByAddress[0m
[34m vcan0  7E8  [8]  [SF] ln: 3    data: 7F 23 31 00 00 00 00  -  '.#1....' - [NRC] requestOutOfRange[0m
[31m vcan0  7E0  [8]  [SF] ln: 7    data: 23 14 00 01 F4 80 80  -  '#......' - [SRQ] ReadMemoryByAddress[0m
[34m vcan0  7E8  [8]  [SF] ln: 3    data: 7F 23 31 00 00 00 00  -  '.#1....' - [NRC] requestOutOfRange[0m
[31m vcan0  7E0  [8]  [SF] ln: 7    data: 23 14 00 01 F5 00 80  -  '#......' - [SRQ] ReadMemoryByAddress[0m
[34m vcan0  7E8  [8]  [SF] ln: 3    data: 7F 23 31 00 00 00 00  -  '.#1....' - [NRC] requestOutOfRange[0m
[31m vcan0  7E0  [8]  [SF] ln: 7    data: 23 14 00 01 F5 80 80  -  '#......' - [SRQ] ReadMemoryByAddress[0m
[34m vcan0  7E8  [8]  [SF] ln: 3    data: 7F 23 31 00 00 00 00  -  '.#1....' - [NRC] requestOutOfRange[0m
[31m vcan0  7E0  [8]  [SF] ln: 7    data: 23 14 00 01 F6 00 80  -  '#......' - [SRQ] ReadMemoryByAddress[0m
[34m vcan0  7E8  [8]  [SF] ln: 3    data: 7F 23 31 00 00 00 00  -  '.#1....' - [NRC] requestOutOfRange[0m
[31m vcan0  7E0  [8]  [SF] ln: 7    data: 23 14 00 01 F6 80 80  -  '#......' - [SRQ] ReadMemoryByAddress[0m
[34m vcan0  7E8  [8]  [SF] ln: 3    data: 7F 23 31 00 00 00 00  -  '.#1....' - [NRC] requestOutOfRange[0m
[31m vcan0  7E0  [8]  [SF] ln: 7    data: 23 14 00 01 F7 00 80  -  '#......' - [SRQ] ReadMemoryByAddress[0m
[34m vcan0  7E8  [8]  [SF] ln: 3    data: 7F 23 31 00 00 00 00  -  '.#1....' - [NRC] requestOutOfRange[0m
[31m vcan0  7E0  [8]  [SF] ln: 7    data: 23 14 00 01 F7 80 80  -  '#......' - [SRQ] ReadMemoryByAddress[0m
[34m vcan0  7E8  [8]  [SF] ln: 3    data: 7F 23 31 00 00 00 00  -  '.#1....' - [NRC] requestOutOfRange[0m
[31m vcan0  7E0  [8]  [SF] ln: 7    data: 23 14 00 01 F8 00 80  -  '#......' - [SRQ] ReadMemoryByAddress[0m
[34m vcan0  7E8  [8]  [SF] ln: 3    data: 7F 23 31 00 00 00 00  -  '.#1....' - [NRC] requestOutOfRange[0m
[31m vcan0  7E0  [8]  [SF] ln: 7    data: 23 14 00 01 F8 80 80  -  '#......' - [SRQ] ReadMemoryByAddress[0m
[34m vcan0  7E8  [8]  [SF] ln: 3    data: 7F 23 31 00 00 00 00  -  '.#1....' - [NRC] requestOutOfRange[0m
[31m vcan0  7E0  [8]  [SF] ln: 7    data: 23 14 00 01 F9 00 80  -  '#......' - [SRQ] ReadMemoryByAddress[0m
[34m vcan0  7E8  [8]  [SF] ln: 3    data: 7F 23 31 00 00 00 00  -  '.#1....' - [NRC] requestOutOfRange[0m
[31m vcan0  7E0  [8]  [SF] ln: 7    data: 23 14 00 01 F9 80 80  -  '#......' - [SRQ] ReadMemoryByAddress[0m
[34m vcan0  7E8  [8]  [SF] ln: 3    data: 7F 23 31 00 00 00 00  -  '.#1....' - [NRC] requestOutOfRange[0m
[31m vcan0  7E0  [8]  [SF] ln: 7    data: 23 14 00 01 FA 00 80  -  '#......' - [SRQ] ReadMemoryByAddress[0m
[34m vcan0  7E8  [8]  [SF] ln: 3    data: 7F 23 31 00 00 00 00  -  '.#1....' - [NRC] requestOutOfRange[0m
[31m vcan0  7E0  [8]  [SF] ln: 7    data: 23 14 00 01 FA 80 80  -  '#......' - [SRQ] ReadMemoryByAddress[0m
[34m vcan0  7E8  [8]  [SF] ln: 3    data: 7F 23 31 00 00 00 00  -  '.#1....' - [NRC] requestOutOfRange[0m
[31m vcan0  7E0  [8]  [SF] ln: 7    data: 23 14 00 01 FB 00 80  -  '#......' - [SRQ] ReadMemoryByAddress[0m
[34m vcan0  7E8  [8]  [SF] ln: 3    data: 7F 23 31 00 00 00 00  -  '.#1....' - [NRC] requestOutOfRange[0m
[31m vcan0  7E0  [8]  [SF] ln: 7    data: 23 14 00 01 FB 80 80  -  '#......' - [SRQ] ReadMemoryByAddress[0m
[34m vcan0  7E8  [8]  [SF] ln: 3    data: 7F 23 31 00 00 00 00  -  '.#1....' - [NRC] requestOutOfRange[0m
[31m vcan0  7E0  [8]  [SF] ln: 7    data: 23 14 00 01 FC 00 80  -  '#......' - [SRQ] ReadMemoryByAddress[0m
[34m vcan0  7E8  [8]  [SF] ln: 3    data: 7F 23 31 00 00 00 00  -  '.#1....' - [NRC] requestOutOfRange[0m
[31m vcan0  7E0  [8]  [SF] ln: 7    data: 23 14 00 01 FC 80 80  -  '#......' - [SRQ] ReadMemoryByAddress[0m
[34m vcan0  7E8  [8]  [SF] ln: 3    data: 7F 23 31 00 00 00 00  -  '.#1....' - [NRC] requestOutOfRange[0m
[31m vcan0  7E0  [8]  [SF] ln: 7    data: 23 14 00 01 FD 00 80  -  '#......' - [SRQ] ReadMemoryByAddress[0m
[34m vcan0  7E8  [8]  [SF] ln: 3    data: 7F 23 31 00 00 00 00  -  '.#1....' - [NRC] requestOutOfRange[0m
[31m vcan0  7E0  [8]  [SF] ln: 7    data: 23 14 00 01 FD 80 80  -  '#......' - [SRQ] ReadMemoryByAddress[0m
[34m vcan0  7E8  [8]  [SF] ln: 3    data: 7F 23 31 00 00 00 00  -  '.#1....' - [NRC] requestOutOfRange[0m
[31m vcan0  7E0  [8]  [SF] ln: 7    data: 23 14 00 01 FE 00 80  -  '#......' - [SRQ] ReadMemoryByAddress[0m
[34m vcan0  7E8  [8]  [SF] ln: 3    data: 7F 23 31 00 00 00 00  -  '.#1....' - [NRC] requestOutOfRange[0m
[31m vcan0  7E0  [8]  [SF] ln: 7    data: 23 14 00 01 FE 80 80  -  '#......' - [SRQ] ReadMemoryByAddress[0m
[34m vcan0  7E8  [8]  [SF] ln: 3    data: 7F 23 31 00 00 00 00  -  '.#1....' - [NRC] requestOutOfRange[0m
[31m vcan0  7E0  [8]  [SF] ln: 7    data: 23 14 00 01 FF 00 80  -  '#......' - [SRQ] ReadMemoryByAddress[0m
[34m vcan0  7E8  [8]  [SF] ln: 3    data: 7F 23 31 00 00 00 00  -  '.#1....' - [NRC] requestOutOfRange[0m
[31m vcan0  7E0  [8]  [SF] ln: 7    data: 23 14 00 01 FF 80 80  -  '#......' - [SRQ] ReadMemoryByAddress[0m
[34m vcan0  7E8  [8]  [SF] ln: 3    data: 7F 23 31 00 00 00 00  -  '.#1....' - [NRC] requestOutOfRange[0m
[31m vcan0  7E0  [8]  [SF] ln: 7    data: 23 14 00 02 00 00 80  -  '#......' - [SRQ] ReadMemoryByAddress[0m
[34m vcan0  7E8  [8]  [SF] ln: 3    data: 7F 23 31 00 00 00 00  -  '.#1....' - [NRC] requestOutOfRange[0m
[31m vcan0  7E0  [8]  [SF] ln: 7    data: 23 14 00 02 00 80 80  -  '#......' - [SRQ] ReadMemoryByAddress[0m
[34m vcan0  7E8  [8]  [SF] ln: 3    data: 7F 23 31 00 00 00 00  -  '.#1....' - [NRC] requestOutOfRange[0m
[31m vcan0  7E0  [8]  [SF] ln: 7    data: 23 14 00 02 01 00 80  -  '#......' - [SRQ] ReadMemoryByAddress[0m
[34m vcan0  7E8  [8]  [SF] ln: 3    data: 7F 23 31 00 00 00 00  -  '.#1....' - [NRC] requestOutOfRange[0m
[31m vcan0  7E0  [8]  [SF] ln: 7    data: 23 14 00 02 01 80 80  -  '#......' - [SRQ] ReadMemoryByAddress[0m
[34m vcan0  7E8  [8]  [SF] ln: 3    data: 7F 23 31 00 00 00 00  -  '.#1....' - [NRC] requestOutOfRange[0m
[31m vcan0  7E0  [8]  [SF] ln: 7    data: 23 14 00 02 02 00 80  -  '#......' - [SRQ] ReadMemoryByAddress[0m
[34m vcan0  7E8  [8]  [SF] ln: 3    data: 7F 23 31 00 00 00 00  -  '.#1....' - [NRC] requestOutOfRange[0m
[31m vcan0  7E0  [8]  [SF] ln: 7    data: 23 14 00 02 02 80 80  -  '#......' - [SRQ] ReadMemoryByAddress[0m
[34m vcan0  7E8  [8]  [SF] ln: 3    data: 7F 23 31 00 00 00 00  -  '.#1....' - [NRC] requestOutOfRange[0m
[31m vcan0  7E0  [8]  [SF] ln: 7    data: 23 14 00 02 03 00 80  -  '#......' - [SRQ] ReadMemoryByAddress[0m
[34m vcan0  7E8  [8]  [SF] ln: 3    data: 7F 23 31 00 00 00 00  -  '.#1....' - [NRC] requestOutOfRange[0m
[31m vcan0  7E0  [8]  [SF] ln: 7    data: 23 14 00 02 03 80 80  -  '#......' - [SRQ] ReadMemoryByAddress[0m
[34m vcan0  7E8  [8]  [SF] ln: 3    data: 7F 23 31 00 00 00 00  -  '.#1....' - [NRC] requestOutOfRange[0m
[31m vcan0  7E0  [8]  [SF] ln: 7    data: 23 14 00 02 04 00 80  -  '#......' - [SRQ] ReadMemoryByAddress[0m
[34m vcan0  7E8  [8]  [SF] ln: 3    data: 7F 23 31 00 00 00 00  -  '.#1....' - [NRC] requestOutOfRange[0m
[31m vcan0  7E0  [8]  [SF] ln: 7    data: 23 14 00 02 04 80 80  -  '#......' - [SRQ] ReadMemoryByAddress[0m
[34m vcan0  7E8  [8]  [SF] ln: 3    data: 7F 23 31 00 00 00 00  -  '.#1....' - [NRC] requestOutOfRange[0m
[31m vcan0  7E0  [8]  [SF] ln: 7    data: 23 14 00 02 05 00 80  -  '#......' - [SRQ] ReadMemoryByAddress[0m
[34m vcan0  7E8  [8]  [SF] ln: 3    data: 7F 23 31 00 00 00 00  -  '.#1....' - [NRC] requestOutOfRange[0m
[31m vcan0  7E0  [8]  [SF] ln: 7    data: 23 14 00 02 05 80 80  -  '#......' - [SRQ] ReadMemoryByAddress[0m
[34m vcan0  7E8  [8]  [SF] ln: 3    data: 7F 23 31 00 00 00 00  -  '.#1....' - [NRC] requestOutOfRange[0m
[31m vcan0  7E0  [8]  [SF] ln: 7    data: 23 14 00 02 06 00 80  -  '#......' - [SRQ] ReadMemoryByAddress[0m
[34m vcan0  7E8  [8]  [SF] ln: 3    data: 7F 23 31 00 00 00 00  -  '.#1....' - [NRC] requestOutOfRange[0m
[31m vcan0  7E0  [8]  [SF] ln: 7    data: 23 14 00 02 06 80 80  -  '#......' - [SRQ] ReadMemoryByAddress[0m
[34m vcan0  7E8  [8]  [SF] ln: 3    data: 7F 23 31 00 00 00 00  -  '.#1....' - [NRC] requestOutOfRange[0m
[31m vcan0  7E0  [8]  [SF] ln: 7    data: 23 14 00 02 07 00 80  -  '#......' - [SRQ] ReadMemoryByAddress[0m
[34m vcan0  7E8  [8]  [SF] ln: 3    data: 7F 23 31 00 00 00 00  -  '.#1....' - [NRC] requestOutOfRange[0m
[31m vcan0  7E0  [8]  [SF] ln: 7    data: 23 14 00 02 07 80 80  -  '#......' - [SRQ] ReadMemoryByAddress[0m
[34m vcan0  7E8  [8]  [SF] ln: 3    data: 7F 23 31 00 00 00 00  -  '.#1....' - [NRC] requestOutOfRange[0m
[31m vcan0  7E0  [8]  [SF] ln: 7    data: 23 14 00 02 08 00 80  -  '#......' - [SRQ] ReadMemoryByAddress[0m
[34m vcan0  7E8  [8]  [SF] ln: 3    data: 7F 23 31 00 00 00 00  -  '.#1....' - [NRC] requestOutOfRange[0m
[31m vcan0  7E0  [8]  [SF] ln: 7    data: 23 14 00 02 08 80 80  -  '#......' - [SRQ] ReadMemoryByAddress[0m
[34m vcan0  7E8  [8]  [SF] ln: 3    data: 7F 23 31 00 00 00 00  -  '.#1....' - [NRC] requestOutOfRange[0m
[31m vcan0  7E0  [8]  [SF] ln: 7    data: 23 14 00 02 09 00 80  -  '#......' - [SRQ] ReadMemoryByAddress[0m
[34m vcan0  7E8  [8]  [SF] ln: 3    data: 7F 23 31 00 00 00 00  -  '.#1....' - [NRC] requestOutOfRange[0m
[31m vcan0  7E0  [8]  [SF] ln: 7    data: 23 14 00 02 09 80 80  -  '#......' - [SRQ] ReadMemoryByAddress[0m
[34m vcan0  7E8  [8]  [SF] ln: 3    data: 7F 23 31 00 00 00 00  -  '.#1....' - [NRC] requestOutOfRange[0m
[31m vcan0  7E0  [8]  [SF] ln: 7    data: 23 14 00 02 0A 00 80  -  '#......' - [SRQ] ReadMemoryByAddress[0m
[34m vcan0  7E8  [8]  [SF] ln: 3    data: 7F 23 31 00 00 00 00  -  '.#1....' - [NRC] requestOutOfRange[0m
[31m vcan0  7E0  [8]  [SF] ln: 7    data: 23 14 00 02 0A 80 80  -  '#......' - [SRQ] ReadMemoryByAddress[0m
[34m vcan0  7E8  [8]  [SF] ln: 3    data: 7F 23 31 00 00 00 00  -  '.#1....' - [NRC] requestOutOfRange[0m
[31m vcan0  7E0  [8]  [SF] ln: 7    data: 23 14 00 02 0B 00 80  -  '#......' - [SRQ] ReadMemoryByAddress[0m
[34m vcan0  7E8  [8]  [SF] ln: 3    data: 7F 23 31 00 00 00 00  -  '.#1....' - [NRC] requestOutOfRange[0m
[31m vcan0  7E0  [8]  [SF] ln: 7    data: 23 14 00 02 0B 80 80  -  '#......' - [SRQ] ReadMemoryByAddress[0m
[34m vcan0  7E8  [8]  [SF] ln: 3    data: 7F 23 31 00 00 00 00  -  '.#1....' - [NRC] requestOutOfRange[0m
[31m vcan0  7E0  [8]  [SF] ln: 7    data: 23 14 00 02 0C 00 80  -  '#......' - [SRQ] ReadMemoryByAddress[0m
[34m vcan0  7E8  [8]  [SF] ln: 3    data: 7F 23 31 00 00 00 00  -  '.#1....' - [NRC] requestOutOfRange[0m
[31m vcan0  7E0  [8]  [SF] ln: 7    data: 23 14 00 02 0C 80 80  -  '#......' - [SRQ] ReadMemoryByAddress[0m
[34m vcan0  7E8  [8]  [SF] ln: 3    data: 7F 23 31 00 00 00 00  -  '.#1....' - [NRC] requestOutOfRange[0m
[31m vcan0  7E0  [8]  [SF] ln: 7    data: 23 14 00 02 0D 00 80  -  '#......' - [SRQ] ReadMemoryByAddress[0m
[34m vcan0  7E8  [8]  [SF] ln: 3    data: 7F 23 31 00 00 00 00  -  '.#1....' - [NRC] requestOutOfRange[0m
[31m vcan0  7E0  [8]  [SF] ln: 7    data: 23 14 00 02 0D 80 80  -  '#......' - [SRQ] ReadMemoryByAddress[0m
[34m vcan0  7E8  [8]  [SF] ln: 3    data: 7F 23 31 00 00 00 00  -  '.#1....' - [NRC] requestOutOfRange[0m
[31m vcan0  7E0  [8]  [SF] ln: 7    data: 23 14 00 02 0E 00 80  -  '#......' - [SRQ] ReadMemoryByAddress[0m
[34m vcan0  7E8  [8]  [SF] ln: 3    data: 7F 23 31 00 00 00 00  -  '.#1....' - [NRC] requestOutOfRange[0m
[31m vcan0  7E0  [8]  [SF] ln: 7    data: 23 14 00 02 0E 80 80  -  '#......' - [SRQ] ReadMemoryByAddress[0m
[34m vcan0  7E8  [8]  [SF] ln: 3    data: 7F 23 31 00 00 00 00  -  '.#1....' - [NRC] requestOutOfRange[0m
[31m vcan0  7E0  [8]  [SF] ln: 7    data: 23 14 00 02 0F 00 80  -  '#......' - [SRQ] ReadMemoryByAddress[0m
[34m vcan0  7E8  [8]  [SF] ln: 3    data: 7F 23 31 00 00 00 00  -  '.#1....' - [NRC] requestOutOfRange[0m
[31m vcan0  7E0  [8]  [SF] ln: 7    data: 23 14 00 02 0F 80 80  -  '#......' - [SRQ] ReadMemoryByAddress[0m
[34m vcan0  7E8  [8]  [SF] ln: 3    data: 7F 23 31 00 00 00 00  -  '.#1....' - [NRC] requestOutOfRange[0m
[31m vcan0  7E0  [8]  [SF] ln: 7    data: 23 14 00 02 10 00 80  -  '#......' - [SRQ] ReadMemoryByAddress[0m
[34m vcan0  7E8  [8]  [SF] ln: 3    data: 7F 23 31 00 00 00 00  -  '.#1....' - [NRC] requestOutOfRange[0m
[31m vcan0  7E0  [8]  [SF] ln: 7    data: 23 14 00 02 10 80 80  -  '#......' - [SRQ] ReadMemoryByAddress[0m
[34m vcan0  7E8  [8]  [SF] ln: 3    data: 7F 23 31 00 00 00 00  -  '.#1....' - [NRC] requestOutOfRange[0m
[31m vcan0  7E0  [8]  [SF] ln: 7    data: 23 14 00 02 11 00 80  -  '#......' - [SRQ] ReadMemoryByAddress[0m
[34m vcan0  7E8  [8]  [SF] ln: 3    data: 7F 23 31 00 00 00 00  -  '.#1....' - [NRC] requestOutOfRange[0m
[31m vcan0  7E0  [8]  [SF] ln: 7    data: 23 14 00 02 11 80 80  -  '#......' - [SRQ] ReadMemoryByAddress[0m
[34m vcan0  7E8  [8]  [SF] ln: 3    data: 7F 23 31 00 00 00 00  -  '.#1....' - [NRC] requestOutOfRange[0m
[31m vcan0  7E0  [8]  [SF] ln: 7    data: 23 14 00 02 12 00 80  -  '#......' - [SRQ] ReadMemoryByAddress[0m
[34m vcan0  7E8  [8]  [SF] ln: 3    data: 7F 23 31 00 00 00 00  -  '.#1....' - [NRC] requestOutOfRange[0m
[31m vcan0  7E0  [8]  [SF] ln: 7    data: 23 14 00 02 12 80 80  -  '#......' - [SRQ] ReadMemoryByAddress[0m
[34m vcan0  7E8  [8]  [SF] ln: 3    data: 7F 23 31 00 00 00 00  -  '.#1....' - [NRC] requestOutOfRange[0m
[31m vcan0  7E0  [8]  [SF] ln: 7    data: 23 14 00 02 13 00 80  -  '#......' - [SRQ] ReadMemoryByAddress[0m
[34m vcan0  7E8  [8]  [SF] ln: 3    data: 7F 23 31 00 00 00 00  -  '.#1....' - [NRC] requestOutOfRange[0m
[31m vcan0  7E0  [8]  [SF] ln: 7    data: 23 14 00 02 13 80 80  -  '#......' - [SRQ] ReadMemoryByAddress[0m
[34m vcan0  7E8  [8]  [SF] ln: 3    data: 7F 23 31 00 00 00 00  -  '.#1....' - [NRC] requestOutOfRange[0m
[31m vcan0  7E0  [8]  [SF] ln: 7    data: 23 14 00 02 14 00 80  -  '#......' - [SRQ] ReadMemoryByAddress[0m
[34m vcan0  7E8  [8]  [SF] ln: 3    data: 7F 23 31 00 00 00 00  -  '.#1....' - [NRC] requestOutOfRange[0m
[31m vcan0  7E0  [8]  [SF] ln: 7    data: 23 14 00 02 14 80 80  -  '#......' - [SRQ] ReadMemoryByAddress[0m
[34m vcan0  7E8  [8]  [SF] ln: 3    data: 7F 23 31 00 00 00 00  -  '.#1....' - [NRC] requestOutOfRange[0m
[31m vcan0  7E0  [8]  [SF] ln: 7    data: 23 14 00 02 15 00 80  -  '#......' - [SRQ] ReadMemoryByAddress[0m
[34m vcan0  7E8  [8]  [SF] ln: 3    data: 7F 23 31 00 00 00 00  -  '.#1....' - [NRC] requestOutOfRange[0m
[31m vcan0  7E0  [8]  [SF] ln: 7    data: 23 14 00 02 15 80 80  -  '#......' - [SRQ] ReadMemoryByAddress[0m
[34m vcan0  7E8  [8]  [SF] ln: 3    data: 7F 23 31 00 00 00 00  -  '.#1....' - [NRC] requestOutOfRange[0m
[31m vcan0  7E0  [8]  [SF] ln: 7    data: 23 14 00 02 16 00 80  -  '#......' - [SRQ] ReadMemoryByAddress[0m
[34m vcan0  7E8  [8]  [SF] ln: 3    data: 7F 23 31 00 00 00 00  -  '.#1....' - [NRC] requestOutOfRange[0m
[31m vcan0  7E0  [8]  [SF] ln: 7    data: 23 14 00 02 16 80 80  -  '#......' - [SRQ] ReadMemoryByAddress[0m
[34m vcan0  7E8  [8]  [SF] ln: 3    data: 7F 23 31 00 00 00 00  -  '.#1....' - [NRC] requestOutOfRange[0m
[31m vcan0  7E0  [8]  [SF] ln: 7    data: 23 14 00 02 17 00 80  -  '#......' - [SRQ] ReadMemoryByAddress[0m
[34m vcan0  7E8  [8]  [SF] ln: 3    data: 7F 23 31 00 00 00 00  -  '.#1....' - [NRC] requestOutOfRange[0m
[31m vcan0  7E0  [8]  [SF] ln: 7    data: 23 14 00 02 17 80 80  -  '#......' - [SRQ] ReadMemoryByAddress[0m
[34m vcan0  7E8  [8]  [SF] ln: 3    data: 7F 23 31 00 00 00 00  -  '.#1....' - [NRC] requestOutOfRange[0m
[31m vcan0  7E0  [8]  [SF] ln: 7    data: 23 14 00 02 18 00 80  -  '#......' - [SRQ] ReadMemoryByAddress[0m
[34m vcan0  7E8  [8]  [SF] ln: 3    data: 7F 23 31 00 00 00 00  -  '.#1....' - [NRC] requestOutOfRange[0m
[31m vcan0  7E0  [8]  [SF] ln: 7    data: 23 14 00 02 18 80 80  -  '#......' - [SRQ] ReadMemoryByAddress[0m
[34m vcan0  7E8  [8]  [SF] ln: 3    data: 7F 23 31 00 00 00 00  -  '.#1....' - [NRC] requestOutOfRange[0m
[31m vcan0  7E0  [8]  [SF] ln: 7    data: 23 14 00 02 19 00 80  -  '#......' - [SRQ] ReadMemoryByAddress[0m
[34m vcan0  7E8  [8]  [SF] ln: 3    data: 7F 23 31 00 00 00 00  -  '.#1....' - [NRC] requestOutOfRange[0m
[31m vcan0  7E0  [8]  [SF] ln: 7    data: 23 14 00 02 19 80 80  -  '#......' - [SRQ] ReadMemoryByAddress[0m
[34m vcan0  7E8  [8]  [SF] ln: 3    data: 7F 23 31 00 00 00 00  -  '.#1....' - [NRC] requestOutOfRange[0m
[31m vcan0  7E0  [8]  [SF] ln: 7    data: 23 14 00 02 1A 00 80  -  '#......' - [SRQ] ReadMemoryByAddress[0m
[34m vcan0  7E8  [8]  [SF] ln: 3    data: 7F 23 31 00 00 00 00  -  '.#1....' - [NRC] requestOutOfRange[0m
[31m vcan0  7E0  [8]  [SF] ln: 7    data: 23 14 00 02 1A 80 80  -  '#......' - [SRQ] ReadMemoryByAddress[0m
[34m vcan0  7E8  [8]  [SF] ln: 3    data: 7F 23 31 00 00 00 00  -  '.#1....' - [NRC] requestOutOfRange[0m
[31m vcan0  7E0  [8]  [SF] ln: 7    data: 23 14 00 02 1B 00 80  -  '#......' - [SRQ] ReadMemoryByAddress[0m
[34m vcan0  7E8  [8]  [SF] ln: 3    data: 7F 23 31 00 00 00 00  -  '.#1....' - [NRC] requestOutOfRange[0m
[31m vcan0  7E0  [8]  [SF] ln: 7    data: 23 14 00 02 1B 80 80  -  '#......' - [SRQ] ReadMemoryByAddress[0m
[34m vcan0  7E8  [8]  [SF] ln: 3    data: 7F 23 31 00 00 00 00  -  '.#1....' - [NRC] requestOutOfRange[0m
