[31m vcan0  7E0  [3]  [SF] ln: 2    data: 11 01                 -  '..'      - [SRQ] ECUReset[0m
[34m vcan0  7E8  [8]  [SF] ln: 2    data: 51 01 00 00 00 00 00  -  'Q......' - [PSR] ECUReset[0m
[31m vcan0  7E0  [3]  [SF] ln: 2    data: 10 03                 -  '..'      - [SRQ] DiagnosticSessionControl[0m
[34m vcan0  7E8  [8]  [SF] ln: 2    data: 50 03 00 00 00 00 00  -  'P......' - [PSR] DiagnosticSessionControl[0m
[31m vcan0  7E0  [3]  [SF] ln: 2    data: 27 03                 -  ''.'      - [SRQ] SecurityAccess[0m
[34m vcan0  7E8  [8]  [SF] ln: 4    data: 67 03 7F 86 00 00 00  -  'g......' - [PSR] SecurityAccess[0m
[31m vcan0  7E0  [3]  [SF] ln: 2    data: 11 01                 -  '..'      - [SRQ] ECUReset[0m
[34m vcan0  7E8  [8]  [SF] ln: 2    data: 51 01 00 00 00 00 00  -  'Q......' - [PSR] ECUReset[0m
[31m vcan0  7E0  [3]  [SF] ln: 2    data: 10 03                 -  '..'      - [SRQ] DiagnosticSessionControl[0m
[34m vcan0  7E8  [8]  [SF] ln: 2    data: 50 03 00 00 00 00 00  -  'P......' - [PSR] DiagnosticSessionControl[0m
[31m vcan0  7E0  [3]  [SF] ln: 2    data: 27 03                 -  ''.'      - [SRQ] SecurityAccess[0m
[34m vcan0  7E8  [8]  [SF] ln: 4    data: 67 03 09 29 00 00 00  -  'g..)...' - [PSR] SecurityAccess[0m
[31m vcan0  7E0  [5]  [SF] ln: 4    data: 27 04 F6 D6           -  ''...'    - [SRQ] SecurityAccess[0m
[34m vcan0  7E8  [8]  [SF] ln: 2    data: 67 04 00 00 00 00 00  -  'g......' - [PSR] SecurityAccess[0m
[31m vcan0  7E0  [3]  [SF] ln: 2    data: 11 01                 -  '..'      - [SRQ] ECUReset[0m
[34m vcan0  7E8  [8]  [SF] ln: 2    data: 51 01 00 00 00 00 00  -  'Q......' - [PSR] ECUReset[0m
[31m vcan0  7E0  [3]  [SF] ln: 2    data: 10 03                 -  '..'      - [SRQ] DiagnosticSessionControl[0m
[34m vcan0  7E8  [8]  [SF] ln: 2    data: 50 03 00 00 00 00 00  -  'P......' - [PSR] DiagnosticSessionControl[0m
[31m vcan0  7E0  [3]  [SF] ln: 2    data: 27 03                 -  ''.'      - [SRQ] SecurityAccess[0m
[34m vcan0  7E8  [8]  [SF] ln: 4    data: 67 03 94 43 00 00 00  -  'g..C...' - [PSR] SecurityAccess[0m
[31m vcan0  7E0  [5]  [SF] ln: 4    data: 27 04 6B BC           -  ''.k.'    - [SRQ] SecurityAccess[0m
[34m vcan0  7E8  [8]  [SF] ln: 2    data: 67 04 00 00 00 00 00  -  'g......' - [PSR] SecurityAccess[0m
[31m vcan0  7E0  [3]  [SF] ln: 2    data: 11 01                 -  '..'      - [SRQ] ECUReset[0m
[34m vcan0  7E8  [8]  [SF] ln: 2    data: 51 01 00 00 00 00 00  -  'Q......' - [PSR] ECUReset[0m
[31m vcan0  7E0  [3]  [SF] ln: 2    data: 10 03                 -  '..'      - [SRQ] DiagnosticSessionControl[0m
[34m vcan0  7E8  [8]  [SF] ln: 2    data: 50 03 00 00 00 00 00  -  'P......' - [PSR] DiagnosticSessionControl[0m
[31m vcan0  7E0  [3]  [SF] ln: 2    data: 27 03                 -  ''.'      - [SRQ] SecurityAccess[0m
[34m vcan0  7E8  [8]  [SF] ln: 4    data: 67 03 B6 7F 00 00 00  -  'g......' - [PSR] SecurityAccess[0m
[31m vcan0  7E0  [5]  [SF] ln: 4    data: 27 04 49 80           -  ''.I.'    - [SRQ] SecurityAccess[0m
[34m vcan0  7E8  [8]  [SF] ln: 2    data: 67 04 00 00 00 00 00  -  'g......' - [PSR] SecurityAccess[0m
[31m vcan0  7E0  [3]  [SF] ln: 2    data: 11 01                 -  '..'      - [SRQ] ECUReset[0m
[34m vcan0  7E8  [8]  [SF] ln: 2    data: 51 01 00 00 00 00 00  -  'Q......' - [PSR] ECUReset[0m
[31m vcan0  7E0  [3]  [SF] ln: 2    data: 10 03                 -  '..'      - [SRQ] DiagnosticSessionControl[0m
[34m vcan0  7E8  [8]  [SF] ln: 2    data: 50 03 00 00 00 00 00  -  'P......' - [PSR] DiagnosticSessionControl[0m
[31m vcan0  7E0  [3]  [SF] ln: 2    data: 27 03                 -  ''.'      - [SRQ] SecurityAccess[0m
[34m vcan0  7E8  [8]  [SF] ln: 4    data: 67 03 61 55 00 00 00  -  'g.aU...' - [PSR] SecurityAccess[0m
[31m vcan0  7E0  [5]  [SF] ln: 4    data: 27 04 9E AA           -  ''...'    - [SRQ] SecurityAccess[0m
[34m vcan0  7E8  [8]  [SF] ln: 2    data: 67 04 00 00 00 00 00  -  'g......' - [PSR] SecurityAccess[0m
[31m vcan0  7E0  [3]  [SF] ln: 2    data: 10 02                 -  '..'      - [SRQ] DiagnosticSessionControl[0m
[34m vcan0  7E8  [8]  [SF] ln: 2    data: 50 02 00 00 00 00 00  -  'P......' - [PSR] DiagnosticSessionControl[0m
[31m vcan0  7E0  [8]  [SF] ln: 7    data: 23 14 00 01 A0 00 20  -  '#..... ' - [SRQ] ReadMemoryByAddress[0m
[34m vcan0  7E8  [8]  [FF] ln: 33   data: 63 42 48 53 4D 20     -  'cBHSM '  - [PSR] ReadMemoryByAddress[0m
[31m vcan0  7E0  [8]  [SF] ln: 7    data: 23 14 00 01 A0 20 20  -  '#....  ' - [SRQ] ReadMemoryByAddress[0m
[34m vcan0  7E8  [8]  [FF] ln: 33   data: 63 00 00 00 00 00     -  'c.....'  - [PSR] ReadMemoryByAddress[0m
[31m vcan0  7E0  [3]  [FC] FC: 0 = CTS # BS: 0 = off # STmin: 0x00 = 0 ms[0m
[34m vcan0  7E8  [8]  [CF] sn: 1    data: 00 00 00 00 00 00 00  -  '.......'[0m
[34m vcan0  7E8  [8]  [CF] sn: 2    data: 00 00 00 00 00 00 00  -  '.......'[0m
[34m vcan0  7E8  [8]  [CF] sn: 3    data: 00 00 00 00 00 00 00  -  '.......'[0m
[34m vcan0  7E8  [8]  [CF] sn: 4    data: 00 00 00 00 00 00 00  -  '.......'[0m
[31m vcan0  7E0  [8]  [SF] ln: 7    data: 23 14 00 01 A0 40 20  -  '#....@ ' - [SRQ] ReadMemoryByAddress[0m
[34m vcan0  7E8  [8]  [FF] ln: 33   data: 63 00 00 00 00 00     -  'c.....'  - [PSR] ReadMemoryByAddress[0m
[31m vcan0  7E0  [3]  [FC] FC: 0 = CTS # BS: 0 = off # STmin: 0x00 = 0 ms[0m
[34m vcan0  7E8  [8]  [CF] sn: 1    data: 00 00 00 00 00 00 00  -  '.......'[0m
[34m vcan0  7E8  [8]  [CF] sn: 2    data: 00 00 00 00 00 00 00  -  '.......'[0m
[34m vcan0  7E8  [8]  [CF] sn: 3    data: 00 00 00 00 00 00 00  -  '.......'[0m
[34m vcan0  7E8  [8]  [CF] sn: 4    data: 00 00 00 00 00 00 00  -  '.......'[0m
[31m vcan0  7E0  [8]  [SF] ln: 7    data: 23 14 00 01 A0 60 20  -  '#....` ' - [SRQ] ReadMemoryByAddress[0m
[34m vcan0  7E8  [8]  [FF] ln: 33   data: 63 00 00 00 00 00     -  'c.....'  - [PSR] ReadMemoryByAddress[0m
[31m vcan0  7E0  [3]  [FC] FC: 0 = CTS # BS: 0 = off # STmin: 0x00 = 0 ms[0m
[34m vcan0  7E8  [8]  [CF] sn: 1    data: 00 00 00 00 00 00 00  -  '.......'[0m
[34m vcan0  7E8  [8]  [CF] sn: 2    data: 00 00 00 00 00 00 00  -  '.......'[0m
[34m vcan0  7E8  [8]  [CF] sn: 3    data: 00 00 00 00 00 00 00  -  '.......'[0m
[34m vcan0  7E8  [8]  [CF] sn: 4    data: 00 00 00 00 00 00 00  -  '.......'[0m
[31m vcan0  7E0  [8]  [SF] ln: 7    data: 23 14 00 01 A0 80 20  -  '#..... ' - [SRQ] ReadMemoryByAddress[0m
[34m vcan0  7E8  [8]  [FF] ln: 33   data: 63 00 00 00 00 00     -  'c.....'  - [PSR] ReadMemoryByAddress[0m
[31m vcan0  7E0  [3]  [FC] FC: 0 = CTS # BS: 0 = off # STmin: 0x00 = 0 ms[0m
[34m vcan0  7E8  [8]  [CF] sn: 1    data: 00 00 00 00 00 00 00  -  '.......'[0m
[34m vcan0  7E8  [8]  [CF] sn: 2    data: 00 00 00 00 00 00 00  -  '.......'[0m
[34m vcan0  7E8  [8]  [CF] sn: 3    data: 00 00 00 00 00 00 00  -  '.......'[0m
[34m vcan0  7E8  [8]  [CF] sn: 4    data: 00 00 00 00 00 00 00  -  '.......'[0m
