[31m vcan0  7E0  [3]  [SF] ln: 2    data: 11 01                 -  '..'      - [SRQ] ECUReset[0m
[34m vcan0  7E8  [8]  [SF] ln: 2    data: 51 01 00 00 00 00 00  -  'Q......' - [PSR] ECUReset[0m
[31m vcan0  7E0  [3]  [SF] ln: 2    data: 10 03                 -  '..'      - [SRQ] DiagnosticSessionControl[0m
[34m vcan0  7E8  [8]  [SF] ln: 2    data: 50 03 00 00 00 00 00  -  'P......' - [PSR] DiagnosticSessionControl[0m
[31m vcan0  7E0  [3]  [SF] ln: 2    data: 27 03                 -  ''.'      - [SRQ] SecurityAccess[0m
[34m vcan0  7E8  [8]  [SF] ln: 4    data: 67 03 6D F2 00 00 00  -  'g.m....' - [PSR] SecurityAccess[0m
[31m vcan0  7E0  [5]  [SF] ln: 4    data: 27 04 92 0D           -  ''...'    - [SRQ] SecurityAccess[0m
[34m vcan0  7E8  [8]  [SF] ln: 2    data: 67 04 00 00 00 00 00  -  'g......' - [PSR] SecurityAccess[0m
[31m vcan0  7E0  [3]  [SF] ln: 2    data: 10 02                 -  '..'      - [SRQ] DiagnosticSessionControl[0m
[34m vcan0  7E8  [8]  [SF] ln: 2    data: 50 02 00 00 00 00 00  -  'P......' - [PSR] DiagnosticSessionControl[0m
[31m vcan0  7E0  [8]  [SF] ln: 7    data: 23 14 00 01 A0 00 20  -  '#..... ' - [SRQ] ReadMemoryByAddress[0m
[34m vcan0  7E8  [8]  [FF] ln: 33   data: 63 42 48 53 4D 20     -  'cBHSM '  - [PSR] ReadMemoryByAddress[0m
[31m vcan0  7E0  [3]  [FC] FC: 0 = CTS # BS: 0 = off # STmin: 0x00 = 0 ms[0m
[34m vcan0  7E8  [8]  [CF] sn: 1    data: 28 73 65 63 75 72 65  -  '(secure'[0m
[34m vcan0  7E8  [8]  [CF] sn: 2    data: 20 6D 65 6D 6F 72 79  -  ' memory'[0m
[34m vcan0  7E8  [8]  [CF] sn: 3    data: 29 00 00 00 00 00 00  -  ')......'[0m
[34m vcan0  7E8  [8]  [CF] sn: 4    data: 00 00 00 00 00 00 00  -  '.......'[0m
[31m vcan0  7E0  [8]  [SF] ln: 7    data: 23 14 00 01 A0 20 20  -  '#....  ' - [SRQ] ReadMemoryByAddress[0m
[34m vcan0  7E8  [8]  [FF] ln: 33   data: 63 00 00 00 00 00     -  'c.....'  - [PSR] ReadMemoryByAddress[0m
[31m vcan0  7E0  [3]  [FC] FC: 0 = CTS # BS: 0 = off # STmin: 0x00 = 0 ms[0m
[34m vcan0  7E8  [8]  [CF] sn: 1    data: 00 00 00 00 00 00 00  -  '.......'[0m
[34m vcan0  7E8  [8]  [CF] sn: 2    data: 00 00 00 00 00 00 00  -  '.......'[0m
[34m vcan0  7E8  [8]  [CF] sn: 3    data: 00 00 00 00 00 00 00  -  '.......'[0m
[34m vcan0  7E8  [8]  [CF] sn: 4    data: 00 00 00 00 00 00 00  -  '.......'[0m
[31m vcan0  7E0  [8]  [SF] ln: 7    data: 23 14 00 01 A0 40 20  -  '#....@ ' - [SRQ] ReadMemoryByAddress[0m
[34m vcan0  7E8  [8]  [FF] ln: 33   data: 63 00 00 00 00 00     -  'c.....'  - [PSR] ReadMemoryByAddress[0m
[31m vcan0  7E0  [3]  [FC] FC: 0 = CTS # BS: 0 = off # STmin: 0x00 = 0 ms[0m
[34m vcan0  7E8  [8]  [CF] sn: 1    data: 00 00 00 00 00 00 00  -  '.......'[0m
[34m vcan0  7E8  [8]  [CF] sn: 2    data: 00 00 00 00 00 00 00  -  '.......'[0m
[34m vcan0  7E8  [8]  [CF] sn: 3    data: 00 00 00 00 00 00 00  -  '.......'[0m
[34m vcan0  7E8  [8]  [CF] sn: 4    data: 00 00 00 00 00 00 00  -  '.......'[0m
[31m vcan0  7E0  [8]  [SF] ln: 7    data: 23 14 00 01 A0 60 20  -  '#....` ' - [SRQ] ReadMemoryByAddress[0m
[34m vcan0  7E8  [8]  [FF] ln: 33   data: 63 00 00 00 00 00     -  'c.....'  - [PSR] ReadMemoryByAddress[0m
[31m vcan0  7E0  [3]  [FC] FC: 0 = CTS # BS: 0 = off # STmin: 0x00 = 0 ms[0m
[34m vcan0  7E8  [8]  [CF] sn: 1    data: 00 00 00 00 00 00 00  -  '.......'[0m
[34m vcan0  7E8  [8]  [CF] sn: 2    data: 00 00 00 00 00 00 00  -  '.......'[0m
[34m vcan0  7E8  [8]  [CF] sn: 3    data: 00 00 00 00 00 00 00  -  '.......'[0m
[34m vcan0  7E8  [8]  [CF] sn: 4    data: 00 00 00 00 00 00 00  -  '.......'[0m
[31m vcan0  7E0  [8]  [SF] ln: 7    data: 23 14 00 01 A0 80 20  -  '#..... ' - [SRQ] ReadMemoryByAddress[0m
[34m vcan0  7E8  [8]  [FF] ln: 33   data: 63 00 00 00 00 00     -  'c.....'  - [PSR] ReadMemoryByAddress[0m
[31m vcan0  7E0  [3]  [FC] FC: 0 = CTS # BS: 0 = off # STmin: 0x00 = 0 ms[0m
[34m vcan0  7E8  [8]  [CF] sn: 1    data: 00 00 00 00 00 00 00  -  '.......'[0m
[34m vcan0  7E8  [8]  [CF] sn: 2    data: 00 00 00 00 00 00 00  -  '.......'[0m
[34m vcan0  7E8  [8]  [CF] sn: 3    data: 00 00 00 00 00 00 00  -  '.......'[0m
[34m vcan0  7E8  [8]  [CF] sn: 4    data: 00 00 00 00 00 00 00  -  '.......'[0m
[31m vcan0  7E0  [8]  [SF] ln: 7    data: 23 14 00 01 A0 A0 20  -  '#..... ' - [SRQ] ReadMemoryByAddress[0m
[34m vcan0  7E8  [8]  [FF] ln: 33   data: 63 00 00 00 00 00     -  'c.....'  - [PSR] ReadMemoryByAddress[0m
[31m vcan0  7E0  [3]  [FC] FC: 0 = CTS # BS: 0 = off # STmin: 0x00 = 0 ms[0m
[34m vcan0  7E8  [8]  [CF] sn: 1    data: 00 00 00 00 00 00 00  -  '.......'[0m
[34m vcan0  7E8  [8]  [CF] sn: 2    data: 00 00 00 00 00 00 00  -  '.......'[0m
[34m vcan0  7E8  [8]  [CF] sn: 3    data: 00 00 00 00 00 00 00  -  '.......'[0m
[34m vcan0  7E8  [8]  [CF] sn: 4    data: 00 00 00 00 00 00 00  -  '.......'[0m
[31m vcan0  7E0  [8]  [SF] ln: 7    data: 23 14 00 01 A0 C0 20  -  '#..... ' - [SRQ] ReadMemoryByAddress[0m
[34m vcan0  7E8  [8]  [FF] ln: 33   data: 63 00 00 00 00 00     -  'c.....'  - [PSR] ReadMemoryByAddress[0m
[31m vcan0  7E0  [3]  [FC] FC: 0 = CTS # BS: 0 = off # STmin: 0x00 = 0 ms[0m
[34m vcan0  7E8  [8]  [CF] sn: 1    data: 00 00 00 00 00 00 00  -  '.......'[0m
[34m vcan0  7E8  [8]  [CF] sn: 2    data: 00 00 00 00 00 00 00  -  '.......'[0m
[34m vcan0  7E8  [8]  [CF] sn: 3    data: 00 00 00 00 00 00 00  -  '.......'[0m
[34m vcan0  7E8  [8]  [CF] sn: 4    data: 00 00 00 00 00 00 00  -  '.......'[0m
[31m vcan0  7E0  [8]  [SF] ln: 7    data: 23 14 00 01 A0 E0 20  -  '#..... ' - [SRQ] ReadMemoryByAddress[0m
[34m vcan0  7E8  [8]  [FF] ln: 33   data: 63 00 00 00 00 00     -  'c.....'  - [PSR] ReadMemoryByAddress[0m
[31m vcan0  7E0  [3]  [FC] FC: 0 = CTS # BS: 0 = off # STmin: 0x00 = 0 ms[0m
[34m vcan0  7E8  [8]  [CF] sn: 1    data: 00 00 00 00 00 00 00  -  '.......'[0m
[34m vcan0  7E8  [8]  [CF] sn: 2    data: 00 00 00 00 00 00 00  -  '.......'[0m
[34m vcan0  7E8  [8]  [CF] sn: 3    data: 00 00 00 00 00 00 00  -  '.......'[0m
[34m vcan0  7E8  [8]  [CF] sn: 4    data: 00 00 00 00 00 00 00  -  '.......'[0m
[31m vcan0  7E0  [8]  [SF] ln: 7    data: 23 14 00 01 A1 00 20  -  '#..... ' - [SRQ] ReadMemoryByAddress[0m
[34m vcan0  7E8  [8]  [FF] ln: 33   data: 63 00 00 00 00 00     -  'c.....'  - [PSR] ReadMemoryByAddress[0m
[31m vcan0  7E0  [8]  [SF] ln: 7    data: 23 14 00 01 A1 20 20  -  '#....  ' - [SRQ] ReadMemoryByAddress[0m
[34m vcan0  7E8  [8]  [FF] ln: 33   data: 63 00 00 00 00 00     -  'c.....'  - [PSR] ReadMemoryByAddress[0m
[31m vcan0  7E0  [3]  [FC] FC: 0 = CTS # BS: 0 = off # STmin: 0x00 = 0 ms[0m
[34m vcan0  7E8  [8]  [CF] sn: 1    data: 00 00 00 00 00 00 00  -  '.......'[0m
[34m vcan0  7E8  [8]  [CF] sn: 2    data: 00 00 00 00 00 00 00  -  '.......'[0m
[34m vcan0  7E8  [8]  [CF] sn: 3    data: 00 00 00 00 00 00 00  -  '.......'[0m
[34m vcan0  7E8  [8]  [CF] sn: 4    data: 00 00 00 00 00 00 00  -  '.......'[0m
[31m vcan0  7E0  [8]  [SF] ln: 7    data: 23 14 00 01 A1 40 20  -  '#....@ ' - [SRQ] ReadMemoryByAddress[0m
[34m vcan0  7E8  [8]  [FF] ln: 33   data: 63 00 00 00 00 00     -  'c.....'  - [PSR] ReadMemoryByAddress[0m
[31m vcan0  7E0  [3]  [FC] FC: 0 = CTS # BS: 0 = off # STmin: 0x00 = 0 ms[0m
[34m vcan0  7E8  [8]  [CF] sn: 1    data: 00 00 00 00 00 00 00  -  '.......'[0m
[34m vcan0  7E8  [8]  [CF] sn: 2    data: 00 00 00 00 00 00 00  -  '.......'[0m
[34m vcan0  7E8  [8]  [CF] sn: 3    data: 00 00 00 00 00 00 00  -  '.......'[0m
[34m vcan0  7E8  [8]  [CF] sn: 4    data: 00 00 00 00 00 00 00  -  '.......'[0m
[31m vcan0  7E0  [8]  [SF] ln: 7    data: 23 14 00 01 A1 60 20  -  '#....` ' - [SRQ] ReadMemoryByAddress[0m
[34m vcan0  7E8  [8]  [FF] ln: 33   data: 63 00 00 00 00 00     -  'c.....'  - [PSR] ReadMemoryByAddress[0m
[31m vcan0  7E0  [3]  [FC] FC: 0 = CTS # BS: 0 = off # STmin: 0x00 = 0 ms[0m
[34m vcan0  7E8  [8]  [CF] sn: 1    data: 00 00 00 00 00 00 00  -  '.......'[0m
[34m vcan0  7E8  [8]  [CF] sn: 2    data: 00 00 00 00 00 00 00  -  '.......'[0m
[34m vcan0  7E8  [8]  [CF] sn: 3    data: 00 00 00 00 00 00 00  -  '.......'[0m
[34m vcan0  7E8  [8]  [CF] sn: 4    data: 00 00 00 00 00 00 00  -  '.......'[0m
[31m vcan0  7E0  [8]  [SF] ln: 7    data: 23 14 00 01 A1 80 20  -  '#..... ' - [SRQ] ReadMemoryByAddress[0m
[34m vcan0  7E8  [8]  [FF] ln: 33   data: 63 00 00 00 00 00     -  'c.....'  - [PSR] ReadMemoryByAddress[0m
[31m vcan0  7E0  [8]  [SF] ln: 7    data: 23 14 00 01 A1 A0 20  -  '#..... ' - [SRQ] ReadMemoryByAddress[0m
[34m vcan0  7E8  [8]  [FF] ln: 33   data: 63 00 00 00 00 00     -  'c.....'  - [PSR] ReadMemoryByAddress[0m
[31m vcan0  7E0  [3]  [FC] FC: 0 = CTS # BS: 0 = off # STmin: 0x00 = 0 ms[0m
[34m vcan0  7E8  [8]  [CF] sn: 1    data: 00 00 00 00 00 00 00  -  '.......'[0m
[34m vcan0  7E8  [8]  [CF] sn: 2    data: 00 00 00 00 00 00 00  -  '.......'[0m
[34m vcan0  7E8  [8]  [CF] sn: 3    data: 00 00 00 00 00 00 00  -  '.......'[0m
[34m vcan0  7E8  [8]  [CF] sn: 4    data: 00 00 00 00 00 00 00  -  '.......'[0m
[31m vcan0  7E0  [8]  [SF] ln: 7    data: 23 14 00 01 A1 C0 20  -  '#..... ' - [SRQ] ReadMemoryByAddress[0m
[34m vcan0  7E8  [8]  [FF] ln: 33   data: 63 00 00 00 00 00     -  'c.....'  - [PSR] ReadMemoryByAddress[0m
[31m vcan0  7E0  [3]  [FC] FC: 0 = CTS # BS: 0 = off # STmin: 0x00 = 0 ms[0m
[34m vcan0  7E8  [8]  [CF] sn: 1    data: 00 00 00 00 00 00 00  -  '.......'[0m
[34m vcan0  7E8  [8]  [CF] sn: 2    data: 00 00 00 00 00 00 00  -  '.......'[0m
[34m vcan0  7E8  [8]  [CF] sn: 3    data: 00 00 00 00 00 00 00  -  '.......'[0m
[34m vcan0  7E8  [8]  [CF] sn: 4    data: 00 00 00 00 00 00 00  -  '.......'[0m
[31m vcan0  7E0  [8]  [SF] ln: 7    data: 23 14 00 01 A1 E0 20  -  '#..... ' - [SRQ] ReadMemoryByAddress[0m
[34m vcan0  7E8  [8]  [FF] ln: 33   data: 63 00 00 00 00 00     -  'c.....'  - [PSR] ReadMemoryByAddress[0m
[31m vcan0  7E0  [3]  [FC] FC: 0 = CTS # BS: 0 = off # STmin: 0x00 = 0 ms[0m
[34m vcan0  7E8  [8]  [CF] sn: 1    data: 00 00 00 00 00 00 00  -  '.......'[0m
[34m vcan0  7E8  [8]  [CF] sn: 2    data: 00 00 00 00 00 00 00  -  '.......'[0m
[34m vcan0  7E8  [8]  [CF] sn: 3    data: 00 00 00 00 00 00 00  -  '.......'[0m
[34m vcan0  7E8  [8]  [CF] sn: 4    data: 00 00 00 00 00 00 00  -  '.......'[0m
[31m vcan0  7E0  [8]  [SF] ln: 7    data: 23 14 00 01 A2 00 20  -  '#..... ' - [SRQ] ReadMemoryByAddress[0m
[34m vcan0  7E8  [8]  [FF] ln: 33   data: 63 00 00 00 00 00     -  'c.....'  - [PSR] ReadMemoryByAddress[0m
[31m vcan0  7E0  [3]  [FC] FC: 0 = CTS # BS: 0 = off # STmin: 0x00 = 0 ms[0m
[34m vcan0  7E8  [8]  [CF] sn: 1    data: 00 00 00 00 00 00 00  -  '.......'[0m
[34m vcan0  7E8  [8]  [CF] sn: 2    data: 00 00 00 00 00 00 00  -  '.......'[0m
[34m vcan0  7E8  [8]  [CF] sn: 3    data: 00 00 00 00 00 00 00  -  '.......'[0m
[34m vcan0  7E8  [8]  [CF] sn: 4    data: 00 00 00 00 00 00 00  -  '.......'[0m
[31m vcan0  7E0  [8]  [SF] ln: 7    data: 23 14 00 01 A2 20 20  -  '#....  ' - [SRQ] ReadMemoryByAddress[0m
[34m vcan0  7E8  [8]  [FF] ln: 33   data: 63 00 00 00 00 00     -  'c.....'  - [PSR] ReadMemoryByAddress[0m
[31m vcan0  7E0  [8]  [SF] ln: 7    data: 23 14 00 01 A2 40 20  -  '#....@ ' - [SRQ] ReadMemoryByAddress[0m
[34m vcan0  7E8  [8]  [FF] ln: 33   data: 63 00 00 00 00 00     -  'c.....'  - [PSR] ReadMemoryByAddress[0m
[31m vcan0  7E0  [3]  [FC] FC: 0 = CTS # BS: 0 = off # STmin: 0x00 = 0 ms[0m
[34m vcan0  7E8  [8]  [CF] sn: 1    data: 00 00 00 00 00 00 00  -  '.......'[0m
[34m vcan0  7E8  [8]  [CF] sn: 2    data: 00 00 00 00 00 00 00  -  '.......'[0m
[34m vcan0  7E8  [8]  [CF] sn: 3    data: 00 00 00 00 00 00 00  -  '.......'[0m
[34m vcan0  7E8  [8]  [CF] sn: 4    data: 00 00 00 00 00 00 00  -  '.......'[0m
[31m vcan0  7E0  [8]  [SF] ln: 7    data: 23 14 00 01 A2 60 20  -  '#....` ' - [SRQ] ReadMemoryByAddress[0m
[34m vcan0  7E8  [8]  [FF] ln: 33   data: 63 00 00 00 00 00     -  'c.....'  - [PSR] ReadMemoryByAddress[0m
[31m vcan0  7E0  [3]  [FC] FC: 0 = CTS # BS: 0 = off # STmin: 0x00 = 0 ms[0m
[34m vcan0  7E8  [8]  [CF] sn: 1    data: 00 00 00 00 00 00 00  -  '.......'[0m
[34m vcan0  7E8  [8]  [CF] sn: 2    data: 00 00 00 00 00 00 00  -  '.......'[0m
[34m vcan0  7E8  [8]  [CF] sn: 3    data: 00 00 00 00 00 00 00  -  '.......'[0m
[34m vcan0  7E8  [8]  [CF] sn: 4    data: 00 00 00 00 00 00 00  -  '.......'[0m
[31m vcan0  7E0  [8]  [SF] ln: 7    data: 23 14 00 01 A2 80 20  -  '#..... ' - [SRQ] ReadMemoryByAddress[0m
[34m vcan0  7E8  [8]  [FF] ln: 33   data: 63 00 00 00 00 00     -  'c.....'  - [PSR] ReadMemoryByAddress[0m
[31m vcan0  7E0  [3]  [FC] FC: 0 = CTS # BS: 0 = off # STmin: 0x00 = 0 ms[0m
[34m vcan0  7E8  [8]  [CF] sn: 1    data: 00 00 00 00 00 00 00  -  '.......'[0m
[34m vcan0  7E8  [8]  [CF] sn: 2    data: 00 00 00 00 00 00 00  -  '.......'[0m
[34m vcan0  7E8  [8]  [CF] sn: 3    data: 00 00 00 00 00 00 00  -  '.......'[0m
[34m vcan0  7E8  [8]  [CF] sn: 4    data: 00 00 00 00 00 00 00  -  '.......'[0m
[31m vcan0  7E0  [8]  [SF] ln: 7    data: 23 14 00 01 A2 A0 20  -  '#..... ' - [SRQ] ReadMemoryByAddress[0m
[34m vcan0  7E8  [8]  [FF] ln: 33   data: 63 00 00 00 00 00     -  'c.....'  - [PSR] ReadMemoryByAddress[0m
[31m vcan0  7E0  [3]  [FC] FC: 0 = CTS # BS: 0 = off # STmin: 0x00 = 0 ms[0m
[34m vcan0  7E8  [8]  [CF] sn: 1    data: 00 00 00 00 00 00 00  -  '.......'[0m
[34m vcan0  7E8  [8]  [CF] sn: 2    data: 00 00 00 00 00 00 00  -  '.......'[0m
[34m vcan0  7E8  [8]  [CF] sn: 3    data: 00 00 00 00 00 00 00  -  '.......'[0m
[34m vcan0  7E8  [8]  [CF] sn: 4    data: 00 00 00 00 00 00 00  -  '.......'[0m
[31m vcan0  7E0  [8]  [SF] ln: 7    data: 23 14 00 01 A2 C0 20  -  '#..... ' - [SRQ] ReadMemoryByAddress[0m
[34m vcan0  7E8  [8]  [FF] ln: 33   data: 63 00 00 00 00 00     -  'c.....'  - [PSR] ReadMemoryByAddress[0m
[31m vcan0  7E0  [3]  [FC] FC: 0 = CTS # BS: 0 = off # STmin: 0x00 = 0 ms[0m
[34m vcan0  7E8  [8]  [CF] sn: 1    data: 00 00 00 00 00 00 00  -  '.......'[0m
[34m vcan0  7E8  [8]  [CF] sn: 2    data: 00 00 00 00 00 00 00  -  '.......'[0m
[34m vcan0  7E8  [8]  [CF] sn: 3    data: 00 00 00 00 00 00 00  -  '.......'[0m
[34m vcan0  7E8  [8]  [CF] sn: 4    data: 00 00 00 00 00 00 00  -  '.......'[0m
[31m vcan0  7E0  [8]  [SF] ln: 7    data: 23 14 00 01 A2 E0 20  -  '#..... ' - [SRQ] ReadMemoryByAddress[0m
[34m vcan0  7E8  [8]  [FF] ln: 33   data: 63 00 00 00 00 00     -  'c.....'  - [PSR] ReadMemoryByAddress[0m
[31m vcan0  7E0  [3]  [FC] FC: 0 = CTS # BS: 0 = off # STmin: 0x00 = 0 ms[0m
[34m vcan0  7E8  [8]  [CF] sn: 1    data: 00 00 00 00 00 00 00  -  '.......'[0m
[34m vcan0  7E8  [8]  [CF] sn: 2    data: 00 00 00 00 00 00 00  -  '.......'[0m
[34m vcan0  7E8  [8]  [CF] sn: 3    data: 00 00 00 00 00 00 00  -  '.......'[0m
[34m vcan0  7E8  [8]  [CF] sn: 4    data: 00 00 00 00 00 00 00  -  '.......'[0m
[31m vcan0  7E0  [8]  [SF] ln: 7    data: 23 14 00 01 A3 00 20  -  '#..... ' - [SRQ] ReadMemoryByAddress[0m
[34m vcan0  7E8  [8]  [FF] ln: 33   data: 63 00 00 00 00 00     -  'c.....'  - [PSR] ReadMemoryByAddress[0m
[31m vcan0  7E0  [3]  [FC] FC: 0 = CTS # BS: 0 = off # STmin: 0x00 = 0 ms[0m
[34m vcan0  7E8  [8]  [CF] sn: 1    data: 00 00 00 00 00 00 00  -  '.......'[0m
[34m vcan0  7E8  [8]  [CF] sn: 2    data: 00 00 00 00 00 00 00  -  '.......'[0m
[34m vcan0  7E8  [8]  [CF] sn: 3    data: 00 00 00 00 00 00 00  -  '.......'[0m
[34m vcan0  7E8  [8]  [CF] sn: 4    data: 00 00 00 00 00 00 00  -  '.......'[0m
[31m vcan0  7E0  [8]  [SF] ln: 7    data: 23 14 00 01 A3 20 20  -  '#....  ' - [SRQ] ReadMemoryByAddress[0m
[34m vcan0  7E8  [8]  [FF] ln: 33   data: 63 00 00 00 00 00     -  'c.....'  - [PSR] ReadMemoryByAddress[0m
[31m vcan0  7E0  [3]  [FC] FC: 0 = CTS # BS: 0 = off # STmin: 0x00 = 0 ms[0m
[34m vcan0  7E8  [8]  [CF] sn: 1    data: 00 00 00 00 00 00 00  -  '.......'[0m
[34m vcan0  7E8  [8]  [CF] sn: 2    data: 00 00 00 00 00 00 00  -  '.......'[0m
[34m vcan0  7E8  [8]  [CF] sn: 3    data: 00 00 00 00 00 00 00  -  '.......'[0m
[34m vcan0  7E8  [8]  [CF] sn: 4    data: 00 00 00 00 00 00 00  -  '.......'[0m
[31m vcan0  7E0  [8]  [SF] ln: 7    data: 23 14 00 01 A3 40 20  -  '#....@ ' - [SRQ] ReadMemoryByAddress[0m
[34m vcan0  7E8  [8]  [FF] ln: 33   data: 63 00 00 00 00 00     -  'c.....'  - [PSR] ReadMemoryByAddress[0m
[31m vcan0  7E0  [3]  [FC] FC: 0 = CTS # BS: 0 = off # STmin: 0x00 = 0 ms[0m
[34m vcan0  7E8  [8]  [CF] sn: 1    data: 00 00 00 00 00 00 00  -  '.......'[0m
[34m vcan0  7E8  [8]  [CF] sn: 2    data: 00 00 00 00 00 00 00  -  '.......'[0m
[34m vcan0  7E8  [8]  [CF] sn: 3    data: 00 00 00 00 00 00 00  -  '.......'[0m
[34m vcan0  7E8  [8]  [CF] sn: 4    data: 00 00 00 00 00 00 00  -  '.......'[0m
[31m vcan0  7E0  [8]  [SF] ln: 7    data: 23 14 00 01 A3 60 20  -  '#....` ' - [SRQ] ReadMemoryByAddress[0m
[34m vcan0  7E8  [8]  [FF] ln: 33   data: 63 00 00 00 00 00     -  'c.....'  - [PSR] ReadMemoryByAddress[0m
[31m vcan0  7E0  [3]  [FC] FC: 0 = CTS # BS: 0 = off # STmin: 0x00 = 0 ms[0m
[34m vcan0  7E8  [8]  [CF] sn: 1    data: 00 00 00 00 00 00 00  -  '.......'[0m
[34m vcan0  7E8  [8]  [CF] sn: 2    data: 00 00 00 00 00 00 00  -  '.......'[0m
[34m vcan0  7E8  [8]  [CF] sn: 3    data: 00 00 00 00 00 00 00  -  '.......'[0m
[34m vcan0  7E8  [8]  [CF] sn: 4    data: 00 00 00 00 00 00 00  -  '.......'[0m
[31m vcan0  7E0  [8]  [SF] ln: 7    data: 23 14 00 01 A3 80 20  -  '#..... ' - [SRQ] ReadMemoryByAddress[0m
[34m vcan0  7E8  [8]  [FF] ln: 33   data: 63 00 00 00 00 00     -  'c.....'  - [PSR] ReadMemoryByAddress[0m
[31m vcan0  7E0  [3]  [FC] FC: 0 = CTS # BS: 0 = off # STmin: 0x00 = 0 ms[0m
[34m vcan0  7E8  [8]  [CF] sn: 1    data: 00 00 00 00 00 00 00  -  '.......'[0m
[34m vcan0  7E8  [8]  [CF] sn: 2    data: 00 00 00 00 00 00 00  -  '.......'[0m
[34m vcan0  7E8  [8]  [CF] sn: 3    data: 00 00 00 00 00 00 00  -  '.......'[0m
[34m vcan0  7E8  [8]  [CF] sn: 4    data: 00 00 00 00 00 00 00  -  '.......'[0m
[31m vcan0  7E0  [8]  [SF] ln: 7    data: 23 14 00 01 A3 A0 20  -  '#..... ' - [SRQ] ReadMemoryByAddress[0m
[34m vcan0  7E8  [8]  [SF] ln: 3    data: 7F 23 33 00 00 00 00  -  '.#3....' - [NRC] securityAccessDenied[0m
[31m vcan0  7E0  [8]  [SF] ln: 7    data: 23 14 00 01 A3 C0 20  -  '#..... ' - [SRQ] ReadMemoryByAddress[0m
[34m vcan0  7E8  [8]  [SF] ln: 3    data: 7F 23 33 00 00 00 00  -  '.#3....' - [NRC] securityAccessDenied[0m
[31m vcan0  7E0  [8]  [SF] ln: 7    data: 23 14 00 01 A3 E0 20  -  '#..... ' - [SRQ] ReadMemoryByAddress[0m
[34m vcan0  7E8  [8]  [SF] ln: 3    data: 7F 23 33 00 00 00 00  -  '.#3....' - [NRC] securityAccessDenied[0m
[31m vcan0  7E0  [8]  [SF] ln: 7    data: 23 14 00 01 A4 00 20  -  '#..... ' - [SRQ] ReadMemoryByAddress[0m
[34m vcan0  7E8  [8]  [SF] ln: 3    data: 7F 23 33 00 00 00 00  -  '.#3....' - [NRC] securityAccessDenied[0m
[31m vcan0  7E0  [8]  [SF] ln: 7    data: 23 14 00 01 A4 20 20  -  '#....  ' - [SRQ] ReadMemoryByAddress[0m
[34m vcan0  7E8  [8]  [SF] ln: 3    data: 7F 23 33 00 00 00 00  -  '.#3....' - [NRC] securityAccessDenied[0m
[31m vcan0  7E0  [8]  [SF] ln: 7    data: 23 14 00 01 A4 40 20  -  '#....@ ' - [SRQ] ReadMemoryByAddress[0m
[34m vcan0  7E8  [8]  [SF] ln: 3    data: 7F 23 33 00 00 00 00  -  '.#3....' - [NRC] securityAccessDenied[0m
