[31m vcan0  7E0  [3]  [SF] ln: 2    data: 11 01                 -  '..'      - [SRQ] ECUReset[0m
[34m vcan0  7E8  [3]  [SF] ln: 2    data: 51 01                 -  'Q.'      - [PSR] ECUReset[0m
[31m vcan0  7E0  [3]  [SF] ln: 2    data: 27 05                 -  ''.'      - [SRQ] SecurityAccess[0m
[34m vcan0  7E8  [7]  [SF] ln: 6    data: 67 05 8A 72 D0 AD     -  'g..r..'  - [PSR] SecurityAccess[0m
[31m vcan0  7E0  [7]  [SF] ln: 6    data: 27 06 35 22 71 BA     -  ''.5"q.'  - [SRQ] SecurityAccess[0m
[34m vcan0  7E8  [4]  [SF] ln: 3    data: 7F 27 35              -  '.'5'     - [NRC] invalidKey[0m
[31m vcan0  7E0  [3]  [SF] ln: 2    data: 27 05                 -  ''.'      - [SRQ] SecurityAccess[0m
[34m vcan0  7E8  [7]  [SF] ln: 6    data: 67 05 19 0F 37 4B     -  'g...7K'  - [PSR] SecurityAccess[0m
[31m vcan0  7E0  [7]  [SF] ln: 6    data: 27 06 08 E1 F0 D8     -  ''.....'  - [SRQ] SecurityAccess[0m
[34m vcan0  7E8  [4]  [SF] ln: 3    data: 7F 27 35              -  '.'5'     - [NRC] invalidKey[0m
[31m vcan0  7E0  [3]  [SF] ln: 2    data: 27 05                 -  ''.'      - [SRQ] SecurityAccess[0m
[34m vcan0  7E8  [7]  [SF] ln: 6    data: 67 05 91 0B 3E 51     -  'g...>Q'  - [PSR] SecurityAccess[0m
[31m vcan0  7E0  [7]  [SF] ln: 6    data: 27 06 45 3D 24 B9     -  ''.E=$.'  - [SRQ] SecurityAccess[0m
[34m vcan0  7E8  [4]  [SF] ln: 3    data: 7F 27 35              -  '.'5'     - [NRC] invalidKey[0m
[31m vcan0  7E0  [3]  [SF] ln: 2    data: 27 05                 -  ''.'      - [SRQ] SecurityAccess[0m
[34m vcan0  7E8  [7]  [SF] ln: 6    data: 67 05 A8 CF C8 8B     -  'g.....'  - [PSR] SecurityAccess[0m
[31m vcan0  7E0  [7]  [SF] ln: 6    data: 27 06 0B 03 1C 87     -  ''.....'  - [SRQ] SecurityAccess[0m
[34m vcan0  7E8  [4]  [SF] ln: 3    data: 7F 27 35              -  '.'5'     - [NRC] invalidKey[0m
[31m vcan0  7E0  [3]  [SF] ln: 2    data: 27 05                 -  ''.'      - [SRQ] SecurityAccess[0m
[34m vcan0  7E8  [7]  [SF] ln: 6    data: 67 05 9D 60 99 DB     -  'g..`..'  - [PSR] SecurityAccess[0m
[31m vcan0  7E0  [7]  [SF] ln: 6    data: 27 06 09 56 DB 95     -  ''..V..'  - [SRQ] SecurityAccess[0m
[34m vcan0  7E8  [4]  [SF] ln: 3    data: 7F 27 35              -  '.'5'     - [NRC] invalidKey[0m
[31m vcan0  7E0  [3]  [SF] ln: 2    data: 27 05                 -  ''.'      - [SRQ] SecurityAccess[0m
[34m vcan0  7E8  [7]  [SF] ln: 6    data: 67 05 4B 55 1E CD     -  'g.KU..'  - [PSR] SecurityAccess[0m
[31m vcan0  7E0  [7]  [SF] ln: 6    data: 27 06 9A C4 70 2F     -  ''...p/'  - [SRQ] SecurityAccess[0m
[34m vcan0  7E8  [4]  [SF] ln: 3    data: 7F 27 35              -  '.'5'     - [NRC] invalidKey[0m
[31m vcan0  7E0  [3]  [SF] ln: 2    data: 27 05                 -  ''.'      - [SRQ] SecurityAccess[0m
[34m vcan0  7E8  [7]  [SF] ln: 6    data: 67 05 1C A2 74 2E     -  'g...t.'  - [PSR] SecurityAccess[0m
[31m vcan0  7E0  [7]  [SF] ln: 6    data: 27 06 41 1C 8A 44     -  ''.A..D'  - [SRQ] SecurityAccess[0m
[34m vcan0  7E8  [4]  [SF] ln: 3    data: 7F 27 35              -  '.'5'     - [NRC] invalidKey[0m
[31m vcan0  7E0  [3]  [SF] ln: 2    data: 27 05                 -  ''.'      - [SRQ] SecurityAccess[0m
[34m vcan0  7E8  [7]  [SF] ln: 6    data: 67 05 8E 48 6D 82     -  'g..Hm.'  - [PSR] SecurityAccess[0m
[31m vcan0  7E0  [7]  [SF] ln: 6    data: 27 06 F7 0B 33 D4     -  ''...3.'  - [SRQ] SecurityAccess[0m
[34m vcan0  7E8  [4]  [SF] ln: 3    data: 7F 27 35              -  '.'5'     - [NRC] invalidKey[0m
[31m vcan0  7E0  [3]  [SF] ln: 2    data: 27 05                 -  ''.'      - [SRQ] SecurityAccess[0m
[34m vcan0  7E8  [7]  [SF] ln: 6    data: 67 05 E4 87 DE 9A     -  'g.....'  - [PSR] SecurityAccess[0m
[31m vcan0  7E0  [7]  [SF] ln: 6    data: 27 06 DD 83 EB BA     -  ''.....'  - [SRQ] SecurityAccess[0m
[34m vcan0  7E8  [4]  [SF] ln: 3    data: 7F 27 35              -  '.'5'     - [NRC] invalidKey[0m
[31m vcan0  7E0  [3]  [SF] ln: 2    data: 27 05                 -  ''.'      - [SRQ] SecurityAccess[0m
[34m vcan0  7E8  [7]  [SF] ln: 6    data: 67 05 21 8F 82 70     -  'g.!..p'  - [PSR] SecurityAccess[0m
[31m vcan0  7E0  [7]  [SF] ln: 6    data: 27 06 4E E2 41 6E     -  ''.N.An'  - [SRQ] SecurityAccess[0m
[34m vcan0  7E8  [4]  [SF] ln: 3    data: 7F 27 35              -  '.'5'     - [NRC] invalidKey[0m
[31m vcan0  7E0  [3]  [SF] ln: 2    data: 27 05                 -  ''.'      - [SRQ] SecurityAccess[0m
[34m vcan0  7E8  [7]  [SF] ln: 6    data: 67 05 9D 38 90 3C     -  'g..8.<'  - [PSR] SecurityAccess[0m
[31m vcan0  7E0  [7]  [SF] ln: 6    data: 27 06 9D 81 E6 63     -  ''....c'  - [SRQ] SecurityAccess[0m
[34m vcan0  7E8  [4]  [SF] ln: 3    data: 7F 27 35              -  '.'5'     - [NRC] invalidKey[0m
[31m vcan0  7E0  [3]  [SF] ln: 2    data: 27 05                 -  ''.'      - [SRQ] SecurityAccess[0m
[34m vcan0  7E8  [7]  [SF] ln: 6    data: 67 05 B4 F3 38 F6     -  'g...8.'  - [PSR] SecurityAccess[0m
[31m vcan0  7E0  [7]  [SF] ln: 6    data: 27 06 CA 8E E3 B9     -  ''.....'  - [SRQ] SecurityAccess[0m
[34m vcan0  7E8  [4]  [SF] ln: 3    data: 7F 27 35              -  '.'5'     - [NRC] invalidKey[0m
[31m vcan0  7E0  [3]  [SF] ln: 2    data: 27 05                 -  ''.'      - [SRQ] SecurityAccess[0m
[34m vcan0  7E8  [7]  [SF] ln: 6    data: 67 05 93 3D 74 72     -  'g..=tr'  - [PSR] SecurityAccess[0m
[31m vcan0  7E0  [7]  [SF] ln: 6    data: 27 06 52 2B D0 AE     -  ''.R+..'  - [SRQ] SecurityAccess[0m
[34m vcan0  7E8  [4]  [SF] ln: 3    data: 7F 27 35              -  '.'5'     - [NRC] invalidKey[0m
[31m vcan0  7E0  [3]  [SF] ln: 2    data: 27 05                 -  ''.'      - [SRQ] SecurityAccess[0m
[34m vcan0  7E8  [7]  [SF] ln: 6    data: 67 05 51 66 9F 65     -  'g.Qf.e'  - [PSR] SecurityAccess[0m
[31m vcan0  7E0  [7]  [SF] ln: 6    data: 27 06 08 64 80 46     -  ''..d.F'  - [SRQ] SecurityAccess[0m
[34m vcan0  7E8  [4]  [SF] ln: 3    data: 7F 27 35              -  '.'5'     - [NRC] invalidKey[0m
[31m vcan0  7E0  [3]  [SF] ln: 2    data: 27 05                 -  ''.'      - [SRQ] SecurityAccess[0m
[34m vcan0  7E8  [7]  [SF] ln: 6    data: 67 05 9A 1E 04 D7     -  'g.....'  - [PSR] SecurityAccess[0m
[31m vcan0  7E0  [7]  [SF] ln: 6    data: 27 06 95 1C 7C 15     -  ''...|.'  - [SRQ] SecurityAccess[0m
[34m vcan0  7E8  [4]  [SF] ln: 3    data: 7F 27 35              -  '.'5'     - [NRC] invalidKey[0m
[31m vcan0  7E0  [3]  [SF] ln: 2    data: 27 05                 -  ''.'      - [SRQ] SecurityAccess[0m
[34m vcan0  7E8  [7]  [SF] ln: 6    data: 67 05 95 30 B0 2E     -  'g..0..'  - [PSR] SecurityAccess[0m
[31m vcan0  7E0  [7]  [SF] ln: 6    data: 27 06 89 24 77 5D     -  ''..$w]'  - [SRQ] SecurityAccess[0m
[34m vcan0  7E8  [4]  [SF] ln: 3    data: 7F 27 35              -  '.'5'     - [NRC] invalidKey[0m
[31m vcan0  7E0  [3]  [SF] ln: 2    data: 27 05                 -  ''.'      - [SRQ] SecurityAccess[0m
[34m vcan0  7E8  [7]  [SF] ln: 6    data: 67 05 AB 19 3F 4F     -  'g...?O'  - [PSR] SecurityAccess[0m
[31m vcan0  7E0  [7]  [SF] ln: 6    data: 27 06 C0 6F D9 49     -  ''..o.I'  - [SRQ] SecurityAccess[0m
[34m vcan0  7E8  [4]  [SF] ln: 3    data: 7F 27 35              -  '.'5'     - [NRC] invalidKey[0m
[31m vcan0  7E0  [3]  [SF] ln: 2    data: 27 05                 -  ''.'      - [SRQ] SecurityAccess[0m
[34m vcan0  7E8  [7]  [SF] ln: 6    data: 67 05 0A 5A 5F 07     -  'g..Z_.'  - [PSR] SecurityAccess[0m
[31m vcan0  7E0  [7]  [SF] ln: 6    data: 27 06 3C 0D 06 92     -  ''.<...'  - [SRQ] SecurityAccess[0m
[34m vcan0  7E8  [4]  [SF] ln: 3    data: 7F 27 35              -  '.'5'     - [NRC] invalidKey[0m
[31m vcan0  7E0  [3]  [SF] ln: 2    data: 27 05                 -  ''.'      - [SRQ] SecurityAccess[0m
[34m vcan0  7E8  [7]  [SF] ln: 6    data: 67 05 4E 81 C1 0B     -  'g.N...'  - [PSR] SecurityAccess[0m
[31m vcan0  7E0  [7]  [SF] ln: 6    data: 27 06 CC 5E 4D 4A     -  ''..^MJ'  - [SRQ] SecurityAccess[0m
[34m vcan0  7E8  [4]  [SF] ln: 3    data: 7F 27 35              -  '.'5'     - [NRC] invalidKey[0m
[31m vcan0  7E0  [3]  [SF] ln: 2    data: 27 05                 -  ''.'      - [SRQ] SecurityAccess[0m
[34m vcan0  7E8  [7]  [SF] ln: 6    data: 67 05 26 F6 50 D1     -  'g.&.P.'  - [PSR] SecurityAccess[0m
[31m vcan0  7E0  [7]  [SF] ln: 6    data: 27 06 D7 23 74 94     -  ''..#t.'  - [SRQ] SecurityAccess[0m
[34m vcan0  7E8  [4]  [SF] ln: 3    data: 7F 27 35              -  '.'5'     - [NRC] invalidKey[0m
[31m vcan0  7E0  [3]  [SF] ln: 2    data: 27 05                 -  ''.'      - [SRQ] SecurityAccess[0m
[34m vcan0  7E8  [7]  [SF] ln: 6    data: 67 05 59 24 83 0D     -  'g.Y$..'  - [PSR] SecurityAccess[0m
[31m vcan0  7E0  [7]  [SF] ln: 6    data: 27 06 38 7F F3 E8     -  ''.8...'  - [SRQ] SecurityAccess[0m
[34m vcan0  7E8  [4]  [SF] ln: 3    data: 7F 27 35              -  '.'5'     - [NRC] invalidKey[0m
[31m vcan0  7E0  [3]  [SF] ln: 2    data: 27 05                 -  ''.'      - [SRQ] SecurityAccess[0m
[34m vcan0  7E8  [7]  [SF] ln: 6    data: 67 05 FE 25 0A 81     -  'g..%..'  - [PSR] SecurityAccess[0m
[31m vcan0  7E0  [7]  [SF] ln: 6    data: 27 06 55 5A FD 4A     -  ''.UZ.J'  - [SRQ] SecurityAccess[0m
[34m vcan0  7E8  [4]  [SF] ln: 3    data: 7F 27 35              -  '.'5'     - [NRC] invalidKey[0m
[31m vcan0  7E0  [3]  [SF] ln: 2    data: 27 05                 -  ''.'      - [SRQ] SecurityAccess[0m
[34m vcan0  7E8  [7]  [SF] ln: 6    data: 67 05 36 CF 55 3A     -  'g.6.U:'  - [PSR] SecurityAccess[0m
[31m vcan0  7E0  [7]  [SF] ln: 6    data: 27 06 1A 2A 1B 1C     -  ''..*..'  - [SRQ] SecurityAccess[0m
[34m vcan0  7E8  [4]  [SF] ln: 3    data: 7F 27 35              -  '.'5'     - [NRC] invalidKey[0m
[31m vcan0  7E0  [3]  [SF] ln: 2    data: 27 05                 -  ''.'      - [SRQ] SecurityAccess[0m
[34m vcan0  7E8  [7]  [SF] ln: 6    data: 67 05 9E A2 44 35     -  'g...D5'  - [PSR] SecurityAccess[0m
[31m vcan0  7E0  [7]  [SF] ln: 6    data: 27 06 04 5F 7F 6B     -  ''.._.k'  - [SRQ] SecurityAccess[0m
[34m vcan0  7E8  [4]  [SF] ln: 3    data: 7F 27 35              -  '.'5'     - [NRC] invalidKey[0m
[31m vcan0  7E0  [3]  [SF] ln: 2    data: 27 05                 -  ''.'      - [SRQ] SecurityAccess[0m
[34m vcan0  7E8  [7]  [SF] ln: 6    data: 67 05 C8 46 1C B6     -  'g..F..'  - [PSR] SecurityAccess[0m
[31m vcan0  7E0  [7]  [SF] ln: 6    data: 27 06 AC C7 66 AC     -  ''...f.'  - [SRQ] SecurityAccess[0m
[34m vcan0  7E8  [4]  [SF] ln: 3    data: 7F 27 35              -  '.'5'     - [NRC] invalidKey[0m
[31m vcan0  7E0  [3]  [SF] ln: 2    data: 27 05                 -  ''.'      - [SRQ] SecurityAccess[0m
[34m vcan0  7E8  [7]  [SF] ln: 6    data: 67 05 B4 DC 36 CE     -  'g...6.'  - [PSR] SecurityAccess[0m
[31m vcan0  7E0  [7]  [SF] ln: 6    data: 27 06 AC C2 0F B1     -  ''.....'  - [SRQ] SecurityAccess[0m
[34m vcan0  7E8  [4]  [SF] ln: 3    data: 7F 27 35              -  '.'5'     - [NRC] invalidKey[0m
[31m vcan0  7E0  [3]  [SF] ln: 2    data: 27 05                 -  ''.'      - [SRQ] SecurityAccess[0m
[34m vcan0  7E8  [7]  [SF] ln: 6    data: 67 05 FC 97 FB 1D     -  'g.....'  - [PSR] SecurityAccess[0m
[31m vcan0  7E0  [7]  [SF] ln: 6    data: 27 06 E3 5F 2A C6     -  ''.._*.'  - [SRQ] SecurityAccess[0m
[34m vcan0  7E8  [4]  [SF] ln: 3    data: 7F 27 35              -  '.'5'     - [NRC] invalidKey[0m
[31m vcan0  7E0  [3]  [SF] ln: 2    data: 27 05                 -  ''.'      - [SRQ] SecurityAccess[0m
[34m vcan0  7E8  [7]  [SF] ln: 6    data: 67 05 E5 62 2F 17     -  'g..b/.'  - [PSR] SecurityAccess[0m
[31m vcan0  7E0  [7]  [SF] ln: 6    data: 27 06 6E AA 2B 56     -  ''.n.+V'  - [SRQ] SecurityAccess[0m
[34m vcan0  7E8  [4]  [SF] ln: 3    data: 7F 27 35              -  '.'5'     - [NRC] invalidKey[0m
[31m vcan0  7E0  [3]  [SF] ln: 2    data: 27 05                 -  ''.'      - [SRQ] SecurityAccess[0m
[34m vcan0  7E8  [7]  [SF] ln: 6    data: 67 05 65 A7 C7 2C     -  'g.e..,'  - [PSR] SecurityAccess[0m
[31m vcan0  7E0  [7]  [SF] ln: 6    data: 27 06 91 E6 59 1B     -  ''...Y.'  - [SRQ] SecurityAccess[0m
[34m vcan0  7E8  [4]  [SF] ln: 3    data: 7F 27 35              -  '.'5'     - [NRC] invalidKey[0m
[31m vcan0  7E0  [3]  [SF] ln: 2    data: 27 05                 -  ''.'      - [SRQ] SecurityAccess[0m
[34m vcan0  7E8  [7]  [SF] ln: 6    data: 67 05 F1 90 A8 97     -  'g.....'  - [PSR] SecurityAccess[0m
[31m vcan0  7E0  [7]  [SF] ln: 6    data: 27 06 A9 D1 B3 55     -  ''....U'  - [SRQ] SecurityAccess[0m
[34m vcan0  7E8  [4]  [SF] ln: 3    data: 7F 27 35              -  '.'5'     - [NRC] invalidKey[0m
[31m vcan0  7E0  [3]  [SF] ln: 2    data: 27 05                 -  ''.'      - [SRQ] SecurityAccess[0m
[34m vcan0  7E8  [7]  [SF] ln: 6    data: 67 05 94 DB B4 43     -  'g....C'  - [PSR] SecurityAccess[0m
[31m vcan0  7E0  [7]  [SF] ln: 6    data: 27 06 F4 78 BB 1A     -  ''..x..'  - [SRQ] SecurityAccess[0m
[34m vcan0  7E8  [4]  [SF] ln: 3    data: 7F 27 35              -  '.'5'     - [NRC] invalidKey[0m
[31m vcan0  7E0  [3]  [SF] ln: 2    data: 27 05                 -  ''.'      - [SRQ] SecurityAccess[0m
[34m vcan0  7E8  [7]  [SF] ln: 6    data: 67 05 24 A0 68 8F     -  'g.$.h.'  - [PSR] SecurityAccess[0m
[31m vcan0  7E0  [7]  [SF] ln: 6    data: 27 06 72 81 79 18     -  ''.r.y.'  - [SRQ] SecurityAccess[0m
[34m vcan0  7E8  [4]  [SF] ln: 3    data: 7F 27 35              -  '.'5'     - [NRC] invalidKey[0m
[31m vcan0  7E0  [3]  [SF] ln: 2    data: 27 05                 -  ''.'      - [SRQ] SecurityAccess[0m
[34m vcan0  7E8  [7]  [SF] ln: 6    data: 67 05 0C 77 43 B7     -  'g..wC.'  - [PSR] SecurityAccess[0m
[31m vcan0  7E0  [7]  [SF] ln: 6    data: 27 06 44 FC 44 F5     -  ''.D.D.'  - [SRQ] SecurityAccess[0m
[34m vcan0  7E8  [4]  [SF] ln: 3    data: 7F 27 35              -  '.'5'     - [NRC] invalidKey[0m
[31m vcan0  7E0  [3]  [SF] ln: 2    data: 27 05                 -  ''.'      - [SRQ] SecurityAccess[0m
[34m vcan0  7E8  [7]  [SF] ln: 6    data: 67 05 60 A1 16 F6     -  'g.`...'  - [PSR] SecurityAccess[0m
[31m vcan0  7E0  [7]  [SF] ln: 6    data: 27 06 DB F4 AF F1     -  ''.....'  - [SRQ] SecurityAccess[0m
[34m vcan0  7E8  [4]  [SF] ln: 3    data: 7F 27 35              -  '.'5'     - [NRC] invalidKey[0m
[31m vcan0  7E0  [3]  [SF] ln: 2    data: 27 05                 -  ''.'      - [SRQ] SecurityAccess[0m
[34m vcan0  7E8  [7]  [SF] ln: 6    data: 67 05 BC 6A 33 18     -  'g..j3.'  - [PSR] SecurityAccess[0m
[31m vcan0  7E0  [7]  [SF] ln: 6    data: 27 06 7B CC D5 62     -  ''.{..b'  - [SRQ] SecurityAccess[0m
[34m vcan0  7E8  [4]  [SF] ln: 3    data: 7F 27 35              -  '.'5'     - [NRC] invalidKey[0m
[31m vcan0  7E0  [3]  [SF] ln: 2    data: 27 05                 -  ''.'      - [SRQ] SecurityAccess[0m
[34m vcan0  7E8  [7]  [SF] ln: 6    data: 67 05 56 09 0E BD     -  'g.V...'  - [PSR] SecurityAccess[0m
[31m vcan0  7E0  [7]  [SF] ln: 6    data: 27 06 58 34 9D 95     -  ''.X4..'  - [SRQ] SecurityAccess[0m
[34m vcan0  7E8  [4]  [SF] ln: 3    data: 7F 27 35              -  '.'5'     - [NRC] invalidKey[0m
[31m vcan0  7E0  [3]  [SF] ln: 2    data: 27 05                 -  ''.'      - [SRQ] SecurityAccess[0m
[34m vcan0  7E8  [7]  [SF] ln: 6    data: 67 05 A2 E2 38 52     -  'g...8R'  - [PSR] SecurityAccess[0m
[31m vcan0  7E0  [7]  [SF] ln: 6    data: 27 06 1B DB D2 2D     -  ''....-'  - [SRQ] SecurityAccess[0m
[34m vcan0  7E8  [4]  [SF] ln: 3    data: 7F 27 35              -  '.'5'     - [NRC] invalidKey[0m
[31m vcan0  7E0  [3]  [SF] ln: 2    data: 27 05                 -  ''.'      - [SRQ] SecurityAccess[0m
[34m vcan0  7E8  [7]  [SF] ln: 6    data: 67 05 FB B0 7F D2     -  'g.....'  - [PSR] SecurityAccess[0m
[31m vcan0  7E0  [7]  [SF] ln: 6    data: 27 06 01 46 54 C8     -  ''..FT.'  - [SRQ] SecurityAccess[0m
[34m vcan0  7E8  [4]  [SF] ln: 3    data: 7F 27 35              -  '.'5'     - [NRC] invalidKey[0m
[31m vcan0  7E0  [3]  [SF] ln: 2    data: 27 05                 -  ''.'      - [SRQ] SecurityAccess[0m
[34m vcan0  7E8  [7]  [SF] ln: 6    data: 67 05 09 56 08 88     -  'g..V..'  - [PSR] SecurityAccess[0m
[31m vcan0  7E0  [7]  [SF] ln: 6    data: 27 06 80 EA 58 3B     -  ''...X;'  - [SRQ] SecurityAccess[0m
[34m vcan0  7E8  [4]  [SF] ln: 3    data: 7F 27 35              -  '.'5'     - [NRC] invalidKey[0m
[31m vcan0  7E0  [3]  [SF] ln: 2    data: 27 05                 -  ''.'      - [SRQ] SecurityAccess[0m
[34m vcan0  7E8  [7]  [SF] ln: 6    data: 67 05 C4 43 F8 C3     -  'g..C..'  - [PSR] SecurityAccess[0m
[31m vcan0  7E0  [7]  [SF] ln: 6    data: 27 06 64 AA C0 4A     -  ''.d..J'  - [SRQ] SecurityAccess[0m
[34m vcan0  7E8  [4]  [SF] ln: 3    data: 7F 27 35              -  '.'5'     - [NRC] invalidKey[0m
[31m vcan0  7E0  [3]  [SF] ln: 2    data: 27 05                 -  ''.'      - [SRQ] SecurityAccess[0m
[34m vcan0  7E8  [7]  [SF] ln: 6    data: 67 05 8E 4B 50 F1     -  'g..KP.'  - [PSR] SecurityAccess[0m
[31m vcan0  7E0  [7]  [SF] ln: 6    data: 27 06 21 DF F6 AF     -  ''.!...'  - [SRQ] SecurityAccess[0m
[34m vcan0  7E8  [4]  [SF] ln: 3    data: 7F 27 35              -  '.'5'     - [NRC] invalidKey[0m
[31m vcan0  7E0  [3]  [SF] ln: 2    data: 27 05                 -  ''.'      - [SRQ] SecurityAccess[0m
[34m vcan0  7E8  [7]  [SF] ln: 6    data: 67 05 58 38 F2 30     -  'g.X8.0'  - [PSR] SecurityAccess[0m
[31m vcan0  7E0  [7]  [SF] ln: 6    data: 27 06 AD 34 6B 18     -  ''..4k.'  - [SRQ] SecurityAccess[0m
[34m vcan0  7E8  [4]  [SF] ln: 3    data: 7F 27 35              -  '.'5'     - [NRC] invalidKey[0m
[31m vcan0  7E0  [3]  [SF] ln: 2    data: 27 05                 -  ''.'      - [SRQ] SecurityAccess[0m
[34m vcan0  7E8  [7]  [SF] ln: 6    data: 67 05 6C 4D C1 77     -  'g.lM.w'  - [PSR] SecurityAccess[0m
[31m vcan0  7E0  [7]  [SF] ln: 6    data: 27 06 A4 FD F3 D3     -  ''.....'  - [SRQ] SecurityAccess[0m
[34m vcan0  7E8  [4]  [SF] ln: 3    data: 7F 27 35              -  '.'5'     - [NRC] invalidKey[0m
[31m vcan0  7E0  [3]  [SF] ln: 2    data: 27 05                 -  ''.'      - [SRQ] SecurityAccess[0m
[34m vcan0  7E8  [7]  [SF] ln: 6    data: 67 05 87 67 3F F5     -  'g..g?.'  - [PSR] SecurityAccess[0m
[31m vcan0  7E0  [7]  [SF] ln: 6    data: 27 06 2B DE 0A 2E     -  ''.+...'  - [SRQ] SecurityAccess[0m
[34m vcan0  7E8  [4]  [SF] ln: 3    data: 7F 27 35              -  '.'5'     - [NRC] invalidKey[0m
[31m vcan0  7E0  [3]  [SF] ln: 2    data: 27 05                 -  ''.'      - [SRQ] SecurityAccess[0m
[34m vcan0  7E8  [7]  [SF] ln: 6    data: 67 05 1A 51 00 26     -  'g..Q.&'  - [PSR] SecurityAccess[0m
[31m vcan0  7E0  [7]  [SF] ln: 6    data: 27 06 0A E9 3B EC     -  ''...;.'  - [SRQ] SecurityAccess[0m
[34m vcan0  7E8  [4]  [SF] ln: 3    data: 7F 27 35              -  '.'5'     - [NRC] invalidKey[0m
[31m vcan0  7E0  [3]  [SF] ln: 2    data: 27 05                 -  ''.'      - [SRQ] SecurityAccess[0m
[34m vcan0  7E8  [7]  [SF] ln: 6    data: 67 05 70 CB B7 EF     -  'g.p...'  - [PSR] SecurityAccess[0m
[31m vcan0  7E0  [7]  [SF] ln: 6    data: 27 06 FF 2F 2A 89     -  ''../*.'  - [SRQ] SecurityAccess[0m
[34m vcan0  7E8  [4]  [SF] ln: 3    data: 7F 27 35              -  '.'5'     - [NRC] invalidKey[0m
[31m vcan0  7E0  [3]  [SF] ln: 2    data: 27 05                 -  ''.'      - [SRQ] SecurityAccess[0m
[34m vcan0  7E8  [7]  [SF] ln: 6    data: 67 05 80 88 BF 5F     -  'g...._'  - [PSR] SecurityAccess[0m
[31m vcan0  7E0  [7]  [SF] ln: 6    data: 27 06 25 08 5C 63     -  ''.%.\c'  - [SRQ] SecurityAccess[0m
[34m vcan0  7E8  [4]  [SF] ln: 3    data: 7F 27 35              -  '.'5'     - [NRC] invalidKey[0m
[31m vcan0  7E0  [3]  [SF] ln: 2    data: 27 05                 -  ''.'      - [SRQ] SecurityAccess[0m
[34m vcan0  7E8  [7]  [SF] ln: 6    data: 67 05 52 25 BC 01     -  'g.R%..'  - [PSR] SecurityAccess[0m
[31m vcan0  7E0  [7]  [SF] ln: 6    data: 27 06 62 02 90 20     -  ''.b.. '  - [SRQ] SecurityAccess[0m
[34m vcan0  7E8  [4]  [SF] ln: 3    data: 7F 27 35              -  '.'5'     - [NRC] invalidKey[0m
[31m vcan0  7E0  [3]  [SF] ln: 2    data: 27 05                 -  ''.'      - [SRQ] SecurityAccess[0m
[34m vcan0  7E8  [7]  [SF] ln: 6    data: 67 05 2C 59 08 A2     -  'g.,Y..'  - [PSR] SecurityAccess[0m
[31m vcan0  7E0  [7]  [SF] ln: 6    data: 27 06 0D EA 12 7D     -  ''....}'  - [SRQ] SecurityAccess[0m
[34m vcan0  7E8  [4]  [SF] ln: 3    data: 7F 27 35              -  '.'5'     - [NRC] invalidKey[0m
[31m vcan0  7E0  [3]  [SF] ln: 2    data: 27 05                 -  ''.'      - [SRQ] SecurityAccess[0m
[34m vcan0  7E8  [7]  [SF] ln: 6    data: 67 05 81 1E 6E 42     -  'g...nB'  - [PSR] SecurityAccess[0m
[31m vcan0  7E0  [7]  [SF] ln: 6    data: 27 06 BE 9A 67 75     -  ''...gu'  - [SRQ] SecurityAccess[0m
[34m vcan0  7E8  [4]  [SF] ln: 3    data: 7F 27 35              -  '.'5'     - [NRC] invalidKey[0m
[31m vcan0  7E0  [3]  [SF] ln: 2    data: 27 05                 -  ''.'      - [SRQ] SecurityAccess[0m
[34m vcan0  7E8  [7]  [SF] ln: 6    data: 67 05 E3 AE E7 13     -  'g.....'  - [PSR] SecurityAccess[0m
[31m vcan0  7E0  [7]  [SF] ln: 6    data: 27 06 78 DF 3E F7     -  ''.x.>.'  - [SRQ] SecurityAccess[0m
[34m vcan0  7E8  [4]  [SF] ln: 3    data: 7F 27 35              -  '.'5'     - [NRC] invalidKey[0m
[31m vcan0  7E0  [3]  [SF] ln: 2    data: 27 05                 -  ''.'      - [SRQ] SecurityAccess[0m
[34m vcan0  7E8  [7]  [SF] ln: 6    data: 67 05 56 15 DB 2F     -  'g.V../'  - [PSR] SecurityAccess[0m
[31m vcan0  7E0  [7]  [SF] ln: 6    data: 27 06 95 51 35 80     -  ''..Q5.'  - [SRQ] SecurityAccess[0m
[34m vcan0  7E8  [4]  [SF] ln: 3    data: 7F 27 35              -  '.'5'     - [NRC] invalidKey[0m
[31m vcan0  7E0  [3]  [SF] ln: 2    data: 27 05                 -  ''.'      - [SRQ] SecurityAccess[0m
[34m vcan0  7E8  [7]  [SF] ln: 6    data: 67 05 FF 2A A1 1C     -  'g..*..'  - [PSR] SecurityAccess[0m
[31m vcan0  7E0  [7]  [SF] ln: 6    data: 27 06 1C 44 F8 1D     -  ''..D..'  - [SRQ] SecurityAccess[0m
[34m vcan0  7E8  [4]  [SF] ln: 3    data: 7F 27 35              -  '.'5'     - [NRC] invalidKey[0m
[31m vcan0  7E0  [3]  [SF] ln: 2    data: 27 05                 -  ''.'      - [SRQ] SecurityAccess[0m
[34m vcan0  7E8  [7]  [SF] ln: 6    data: 67 05 21 34 77 BF     -  'g.!4w.'  - [PSR] SecurityAccess[0m
[31m vcan0  7E0  [7]  [SF] ln: 6    data: 27 06 41 39 96 EC     -  ''.A9..'  - [SRQ] SecurityAccess[0m
[34m vcan0  7E8  [4]  [SF] ln: 3    data: 7F 27 35              -  '.'5'     - [NRC] invalidKey[0m
[31m vcan0  7E0  [3]  [SF] ln: 2    data: 27 05                 -  ''.'      - [SRQ] SecurityAccess[0m
[34m vcan0  7E8  [7]  [SF] ln: 6    data: 67 05 9B A4 D4 60     -  'g....`'  - [PSR] SecurityAccess[0m
[31m vcan0  7E0  [7]  [SF] ln: 6    data: 27 06 1F BD 9A 6D     -  ''....m'  - [SRQ] SecurityAccess[0m
[34m vcan0  7E8  [4]  [SF] ln: 3    data: 7F 27 35              -  '.'5'     - [NRC] invalidKey[0m
[31m vcan0  7E0  [3]  [SF] ln: 2    data: 27 05                 -  ''.'      - [SRQ] SecurityAccess[0m
[34m vcan0  7E8  [7]  [SF] ln: 6    data: 67 05 3C 64 66 1B     -  'g.<df.'  - [PSR] SecurityAccess[0m
[31m vcan0  7E0  [7]  [SF] ln: 6    data: 27 06 DC 3E 1D 46     -  ''..>.F'  - [SRQ] SecurityAccess[0m
[34m vcan0  7E8  [4]  [SF] ln: 3    data: 7F 27 35              -  '.'5'     - [NRC] invalidKey[0m
[31m vcan0  7E0  [3]  [SF] ln: 2    data: 27 05                 -  ''.'      - [SRQ] SecurityAccess[0m
[34m vcan0  7E8  [7]  [SF] ln: 6    data: 67 05 1B 89 1B 42     -  'g....B'  - [PSR] SecurityAccess[0m
[31m vcan0  7E0  [7]  [SF] ln: 6    data: 27 06 B7 FB DD 54     -  ''....T'  - [SRQ] SecurityAccess[0m
[34m vcan0  7E8  [4]  [SF] ln: 3    data: 7F 27 35              -  '.'5'     - [NRC] invalidKey[0m
[31m vcan0  7E0  [3]  [SF] ln: 2    data: 27 05                 -  ''.'      - [SRQ] SecurityAccess[0m
[34m vcan0  7E8  [7]  [SF] ln: 6    data: 67 05 CA 01 93 65     -  'g....e'  - [PSR] SecurityAccess[0m
[31m vcan0  7E0  [7]  [SF] ln: 6    data: 27 06 9F DE 4F E2     -  ''...O.'  - [SRQ] SecurityAccess[0m
[34m vcan0  7E8  [4]  [SF] ln: 3    data: 7F 27 35              -  '.'5'     - [NRC] invalidKey[0m
[31m vcan0  7E0  [3]  [SF] ln: 2    data: 27 05                 -  ''.'      - [SRQ] SecurityAccess[0m
[34m vcan0  7E8  [7]  [SF] ln: 6    data: 67 05 D1 FE EB 35     -  'g....5'  - [PSR] SecurityAccess[0m
[31m vcan0  7E0  [7]  [SF] ln: 6    data: 27 06 38 C8 9D 9A     -  ''.8...'  - [SRQ] SecurityAccess[0m
[34m vcan0  7E8  [4]  [SF] ln: 3    data: 7F 27 35              -  '.'5'     - [NRC] invalidKey[0m
[31m vcan0  7E0  [3]  [SF] ln: 2    data: 27 05                 -  ''.'      - [SRQ] SecurityAccess[0m
[34m vcan0  7E8  [7]  [SF] ln: 6    data: 67 05 1B 7D B4 77     -  'g..}.w'  - [PSR] SecurityAccess[0m
[31m vcan0  7E0  [7]  [SF] ln: 6    data: 27 06 1C 49 44 47     -  ''..IDG'  - [SRQ] SecurityAccess[0m
[34m vcan0  7E8  [4]  [SF] ln: 3    data: 7F 27 35              -  '.'5'     - [NRC] invalidKey[0m
[31m vcan0  7E0  [3]  [SF] ln: 2    data: 27 05                 -  ''.'      - [SRQ] SecurityAccess[0m
[34m vcan0  7E8  [7]  [SF] ln: 6    data: 67 05 8A 3A 7A 2E     -  'g..:z.'  - [PSR] SecurityAccess[0m
[31m vcan0  7E0  [7]  [SF] ln: 6    data: 27 06 6F DC A8 FC     -  ''.o...'  - [SRQ] SecurityAccess[0m
[34m vcan0  7E8  [4]  [SF] ln: 3    data: 7F 27 35              -  '.'5'     - [NRC] invalidKey[0m
[31m vcan0  7E0  [3]  [SF] ln: 2    data: 27 05                 -  ''.'      - [SRQ] SecurityAccess[0m
[34m vcan0  7E8  [7]  [SF] ln: 6    data: 67 05 62 8E 11 5D     -  'g.b..]'  - [PSR] SecurityAccess[0m
[31m vcan0  7E0  [7]  [SF] ln: 6    data: 27 06 EC D5 C0 B9     -  ''.....'  - [SRQ] SecurityAccess[0m
[34m vcan0  7E8  [4]  [SF] ln: 3    data: 7F 27 35              -  '.'5'     - [NRC] invalidKey[0m
[31m vcan0  7E0  [3]  [SF] ln: 2    data: 27 05                 -  ''.'      - [SRQ] SecurityAccess[0m
[34m vcan0  7E8  [7]  [SF] ln: 6    data: 67 05 E4 77 1B 8D     -  'g..w..'  - [PSR] SecurityAccess[0m
[31m vcan0  7E0  [7]  [SF] ln: 6    data: 27 06 31 F5 BD 22     -  ''.1.."'  - [SRQ] SecurityAccess[0m
[34m vcan0  7E8  [4]  [SF] ln: 3    data: 7F 27 35              -  '.'5'     - [NRC] invalidKey[0m
[31m vcan0  7E0  [3]  [SF] ln: 2    data: 27 05                 -  ''.'      - [SRQ] SecurityAccess[0m
[34m vcan0  7E8  [7]  [SF] ln: 6    data: 67 05 D9 9A EC EA     -  'g.....'  - [PSR] SecurityAccess[0m
[31m vcan0  7E0  [7]  [SF] ln: 6    data: 27 06 99 5A 1F 16     -  ''..Z..'  - [SRQ] SecurityAccess[0m
[34m vcan0  7E8  [4]  [SF] ln: 3    data: 7F 27 35              -  '.'5'     - [NRC] invalidKey[0m
[31m vcan0  7E0  [3]  [SF] ln: 2    data: 27 05                 -  ''.'      - [SRQ] SecurityAccess[0m
[34m vcan0  7E8  [7]  [SF] ln: 6    data: 67 05 FA 28 C7 4E     -  'g..(.N'  - [PSR] SecurityAccess[0m
[31m vcan0  7E0  [7]  [SF] ln: 6    data: 27 06 E0 5E 8D 9E     -  ''..^..'  - [SRQ] SecurityAccess[0m
[34m vcan0  7E8  [4]  [SF] ln: 3    data: 7F 27 35              -  '.'5'     - [NRC] invalidKey[0m
[31m vcan0  7E0  [3]  [SF] ln: 2    data: 27 05                 -  ''.'      - [SRQ] SecurityAccess[0m
[34m vcan0  7E8  [7]  [SF] ln: 6    data: 67 05 E8 C3 2B 23     -  'g...+#'  - [PSR] SecurityAccess[0m
[31m vcan0  7E0  [7]  [SF] ln: 6    data: 27 06 C9 4F 60 BE     -  ''..O`.'  - [SRQ] SecurityAccess[0m
[34m vcan0  7E8  [4]  [SF] ln: 3    data: 7F 27 35              -  '.'5'     - [NRC] invalidKey[0m
[31m vcan0  7E0  [3]  [SF] ln: 2    data: 27 05                 -  ''.'      - [SRQ] SecurityAccess[0m
[34m vcan0  7E8  [7]  [SF] ln: 6    data: 67 05 49 14 82 79     -  'g.I..y'  - [PSR] SecurityAccess[0m
[31m vcan0  7E0  [7]  [SF] ln: 6    data: 27 06 61 64 C7 CE     -  ''.ad..'  - [SRQ] SecurityAccess[0m
[34m vcan0  7E8  [4]  [SF] ln: 3    data: 7F 27 35              -  '.'5'     - [NRC] invalidKey[0m
[31m vcan0  7E0  [3]  [SF] ln: 2    data: 27 05                 -  ''.'      - [SRQ] SecurityAccess[0m
[34m vcan0  7E8  [7]  [SF] ln: 6    data: 67 05 43 3D 32 6C     -  'g.C=2l'  - [PSR] SecurityAccess[0m
[31m vcan0  7E0  [7]  [SF] ln: 6    data: 27 06 6A 8C 7B 83     -  ''.j.{.'  - [SRQ] SecurityAccess[0m
[34m vcan0  7E8  [4]  [SF] ln: 3    data: 7F 27 35              -  '.'5'     - [NRC] invalidKey[0m
[31m vcan0  7E0  [3]  [SF] ln: 2    data: 27 05                 -  ''.'      - [SRQ] SecurityAccess[0m
[34m vcan0  7E8  [7]  [SF] ln: 6    data: 67 05 F9 28 05 9A     -  'g..(..'  - [PSR] SecurityAccess[0m
[31m vcan0  7E0  [7]  [SF] ln: 6    data: 27 06 98 20 A1 B5     -  ''.. ..'  - [SRQ] SecurityAccess[0m
[34m vcan0  7E8  [4]  [SF] ln: 3    data: 7F 27 35              -  '.'5'     - [NRC] invalidKey[0m
[31m vcan0  7E0  [3]  [SF] ln: 2    data: 27 05                 -  ''.'      - [SRQ] SecurityAccess[0m
[34m vcan0  7E8  [7]  [SF] ln: 6    data: 67 05 E2 4F D2 4E     -  'g..O.N'  - [PSR] SecurityAccess[0m
[31m vcan0  7E0  [7]  [SF] ln: 6    data: 27 06 D1 3D 84 C3     -  ''..=..'  - [SRQ] SecurityAccess[0m
[34m vcan0  7E8  [4]  [SF] ln: 3    data: 7F 27 35              -  '.'5'     - [NRC] invalidKey[0m
[31m vcan0  7E0  [3]  [SF] ln: 2    data: 27 05                 -  ''.'      - [SRQ] SecurityAccess[0m
[34m vcan0  7E8  [7]  [SF] ln: 6    data: 67 05 FB 94 2B 4C     -  'g...+L'  - [PSR] SecurityAccess[0m
[31m vcan0  7E0  [7]  [SF] ln: 6    data: 27 06 9D FD AC AE     -  ''.....'  - [SRQ] SecurityAccess[0m
[34m vcan0  7E8  [4]  [SF] ln: 3    data: 7F 27 35              -  '.'5'     - [NRC] invalidKey[0m
[31m vcan0  7E0  [3]  [SF] ln: 2    data: 27 05                 -  ''.'      - [SRQ] SecurityAccess[0m
[34m vcan0  7E8  [7]  [SF] ln: 6    data: 67 05 EB 45 84 4E     -  'g..E.N'  - [PSR] SecurityAccess[0m
[31m vcan0  7E0  [7]  [SF] ln: 6    data: 27 06 BB 41 7E 34     -  ''..A~4'  - [SRQ] SecurityAccess[0m
[34m vcan0  7E8  [4]  [SF] ln: 3    data: 7F 27 35              -  '.'5'     - [NRC] invalidKey[0m
[31m vcan0  7E0  [3]  [SF] ln: 2    data: 27 05                 -  ''.'      - [SRQ] SecurityAccess[0m
[34m vcan0  7E8  [7]  [SF] ln: 6    data: 67 05 19 87 2A BB     -  'g...*.'  - [PSR] SecurityAccess[0m
[31m vcan0  7E0  [7]  [SF] ln: 6    data: 27 06 C9 0E 8E 77     -  ''....w'  - [SRQ] SecurityAccess[0m
[34m vcan0  7E8  [4]  [SF] ln: 3    data: 7F 27 35              -  '.'5'     - [NRC] invalidKey[0m
[31m vcan0  7E0  [3]  [SF] ln: 2    data: 27 05                 -  ''.'      - [SRQ] SecurityAccess[0m
[34m vcan0  7E8  [7]  [SF] ln: 6    data: 67 05 36 A1 B8 C4     -  'g.6...'  - [PSR] SecurityAccess[0m
[31m vcan0  7E0  [7]  [SF] ln: 6    data: 27 06 ED 98 16 3C     -  ''....<'  - [SRQ] SecurityAccess[0m
[34m vcan0  7E8  [4]  [SF] ln: 3    data: 7F 27 35              -  '.'5'     - [NRC] invalidKey[0m
[31m vcan0  7E0  [3]  [SF] ln: 2    data: 27 05                 -  ''.'      - [SRQ] SecurityAccess[0m
[34m vcan0  7E8  [7]  [SF] ln: 6    data: 67 05 B3 CE C1 62     -  'g....b'  - [PSR] SecurityAccess[0m
[31m vcan0  7E0  [7]  [SF] ln: 6    data: 27 06 B0 37 C0 AD     -  ''..7..'  - [SRQ] SecurityAccess[0m
[34m vcan0  7E8  [4]  [SF] ln: 3    data: 7F 27 35              -  '.'5'     - [NRC] invalidKey[0m
[31m vcan0  7E0  [3]  [SF] ln: 2    data: 27 05                 -  ''.'      - [SRQ] SecurityAccess[0m
[34m vcan0  7E8  [7]  [SF] ln: 6    data: 67 05 B6 97 78 26     -  'g...x&'  - [PSR] SecurityAccess[0m
[31m vcan0  7E0  [7]  [SF] ln: 6    data: 27 06 DF 91 76 55     -  ''...vU'  - [SRQ] SecurityAccess[0m
[34m vcan0  7E8  [4]  [SF] ln: 3    data: 7F 27 35              -  '.'5'     - [NRC] invalidKey[0m
[31m vcan0  7E0  [3]  [SF] ln: 2    data: 27 05                 -  ''.'      - [SRQ] SecurityAccess[0m
[34m vcan0  7E8  [7]  [SF] ln: 6    data: 67 05 E3 3E 9D F7     -  'g..>..'  - [PSR] SecurityAccess[0m
[31m vcan0  7E0  [7]  [SF] ln: 6    data: 27 06 59 31 BF BA     -  ''.Y1..'  - [SRQ] SecurityAccess[0m
[34m vcan0  7E8  [4]  [SF] ln: 3    data: 7F 27 35              -  '.'5'     - [NRC] invalidKey[0m
[31m vcan0  7E0  [3]  [SF] ln: 2    data: 27 05                 -  ''.'      - [SRQ] SecurityAccess[0m
[34m vcan0  7E8  [7]  [SF] ln: 6    data: 67 05 C2 1B 0B 9F     -  'g.....'  - [PSR] SecurityAccess[0m
[31m vcan0  7E0  [7]  [SF] ln: 6    data: 27 06 5E 67 F2 60     -  ''.^g.`'  - [SRQ] SecurityAccess[0m
[34m vcan0  7E8  [4]  [SF] ln: 3    data: 7F 27 35              -  '.'5'     - [NRC] invalidKey[0m
[31m vcan0  7E0  [3]  [SF] ln: 2    data: 27 05                 -  ''.'      - [SRQ] SecurityAccess[0m
[34m vcan0  7E8  [7]  [SF] ln: 6    data: 67 05 7B 88 20 F7     -  'g.{. .'  - [PSR] SecurityAccess[0m
[31m vcan0  7E0  [7]  [SF] ln: 6    data: 27 06 99 5E 15 E4     -  ''..^..'  - [SRQ] SecurityAccess[0m
[34m vcan0  7E8  [4]  [SF] ln: 3    data: 7F 27 35              -  '.'5'     - [NRC] invalidKey[0m
[31m vcan0  7E0  [3]  [SF] ln: 2    data: 27 05                 -  ''.'      - [SRQ] SecurityAccess[0m
[34m vcan0  7E8  [7]  [SF] ln: 6    data: 67 05 B2 CF BC 98     -  'g.....'  - [PSR] SecurityAccess[0m
[31m vcan0  7E0  [7]  [SF] ln: 6    data: 27 06 52 D9 0D 9B     -  ''.R...'  - [SRQ] SecurityAccess[0m
[34m vcan0  7E8  [4]  [SF] ln: 3    data: 7F 27 35              -  '.'5'     - [NRC] invalidKey[0m
[31m vcan0  7E0  [3]  [SF] ln: 2    data: 27 05                 -  ''.'      - [SRQ] SecurityAccess[0m
[34m vcan0  7E8  [7]  [SF] ln: 6    data: 67 05 DB DD B3 01     -  'g.....'  - [PSR] SecurityAccess[0m
[31m vcan0  7E0  [7]  [SF] ln: 6    data: 27 06 E1 70 D9 27     -  ''..p.''  - [SRQ] SecurityAccess[0m
[34m vcan0  7E8  [4]  [SF] ln: 3    data: 7F 27 35              -  '.'5'     - [NRC] invalidKey[0m
[31m vcan0  7E0  [3]  [SF] ln: 2    data: 27 05                 -  ''.'      - [SRQ] SecurityAccess[0m
[34m vcan0  7E8  [7]  [SF] ln: 6    data: 67 05 94 AE C7 4F     -  'g....O'  - [PSR] SecurityAccess[0m
[31m vcan0  7E0  [7]  [SF] ln: 6    data: 27 06 7C B4 15 97     -  ''.|...'  - [SRQ] SecurityAccess[0m
[34m vcan0  7E8  [4]  [SF] ln: 3    data: 7F 27 35              -  '.'5'     - [NRC] invalidKey[0m
[31m vcan0  7E0  [3]  [SF] ln: 2    data: 27 05                 -  ''.'      - [SRQ] SecurityAccess[0m
[34m vcan0  7E8  [7]  [SF] ln: 6    data: 67 05 3C F7 16 27     -  'g.<..''  - [PSR] SecurityAccess[0m
[31m vcan0  7E0  [7]  [SF] ln: 6    data: 27 06 A5 0C D7 72     -  ''....r'  - [SRQ] SecurityAccess[0m
[34m vcan0  7E8  [4]  [SF] ln: 3    data: 7F 27 35              -  '.'5'     - [NRC] invalidKey[0m
[31m vcan0  7E0  [3]  [SF] ln: 2    data: 27 05                 -  ''.'      - [SRQ] SecurityAccess[0m
[34m vcan0  7E8  [7]  [SF] ln: 6    data: 67 05 BB A7 38 70     -  'g...8p'  - [PSR] SecurityAccess[0m
[31m vcan0  7E0  [7]  [SF] ln: 6    data: 27 06 71 DD 90 F0     -  ''.q...'  - [SRQ] SecurityAccess[0m
[34m vcan0  7E8  [4]  [SF] ln: 3    data: 7F 27 35              -  '.'5'     - [NRC] invalidKey[0m
[31m vcan0  7E0  [3]  [SF] ln: 2    data: 27 05                 -  ''.'      - [SRQ] SecurityAccess[0m
[34m vcan0  7E8  [7]  [SF] ln: 6    data: 67 05 58 ED AF 82     -  'g.X...'  - [PSR] SecurityAccess[0m
[31m vcan0  7E0  [7]  [SF] ln: 6    data: 27 06 49 45 A4 33     -  ''.IE.3'  - [SRQ] SecurityAccess[0m
[34m vcan0  7E8  [4]  [SF] ln: 3    data: 7F 27 35              -  '.'5'     - [NRC] invalidKey[0m
[31m vcan0  7E0  [3]  [SF] ln: 2    data: 27 05                 -  ''.'      - [SRQ] SecurityAccess[0m
[34m vcan0  7E8  [7]  [SF] ln: 6    data: 67 05 BC 42 04 DF     -  'g..B..'  - [PSR] SecurityAccess[0m
[31m vcan0  7E0  [7]  [SF] ln: 6    data: 27 06 32 94 9E D2     -  ''.2...'  - [SRQ] SecurityAccess[0m
[34m vcan0  7E8  [4]  [SF] ln: 3    data: 7F 27 35              -  '.'5'     - [NRC] invalidKey[0m
[31m vcan0  7E0  [3]  [SF] ln: 2    data: 27 05                 -  ''.'      - [SRQ] SecurityAccess[0m
[34m vcan0  7E8  [7]  [SF] ln: 6    data: 67 05 51 BB 8B D2     -  'g.Q...'  - [PSR] SecurityAccess[0m
[31m vcan0  7E0  [7]  [SF] ln: 6    data: 27 06 29 69 D1 52     -  ''.)i.R'  - [SRQ] SecurityAccess[0m
[34m vcan0  7E8  [4]  [SF] ln: 3    data: 7F 27 35              -  '.'5'     - [NRC] invalidKey[0m
[31m vcan0  7E0  [3]  [SF] ln: 2    data: 27 05                 -  ''.'      - [SRQ] SecurityAccess[0m
[34m vcan0  7E8  [7]  [SF] ln: 6    data: 67 05 96 33 DA 04     -  'g..3..'  - [PSR] SecurityAccess[0m
[31m vcan0  7E0  [7]  [SF] ln: 6    data: 27 06 D5 5F AF 18     -  ''.._..'  - [SRQ] SecurityAccess[0m
[34m vcan0  7E8  [4]  [SF] ln: 3    data: 7F 27 35              -  '.'5'     - [NRC] invalidKey[0m
[31m vcan0  7E0  [3]  [SF] ln: 2    data: 27 05                 -  ''.'      - [SRQ] SecurityAccess[0m
[34m vcan0  7E8  [7]  [SF] ln: 6    data: 67 05 39 58 71 38     -  'g.9Xq8'  - [PSR] SecurityAccess[0m
[31m vcan0  7E0  [7]  [SF] ln: 6    data: 27 06 EB 37 45 2A     -  ''..7E*'  - [SRQ] SecurityAccess[0m
[34m vcan0  7E8  [4]  [SF] ln: 3    data: 7F 27 35              -  '.'5'     - [NRC] invalidKey[0m
[31m vcan0  7E0  [3]  [SF] ln: 2    data: 27 05                 -  ''.'      - [SRQ] SecurityAccess[0m
[34m vcan0  7E8  [7]  [SF] ln: 6    data: 67 05 00 DD 3C 63     -  'g...<c'  - [PSR] SecurityAccess[0m
[31m vcan0  7E0  [7]  [SF] ln: 6    data: 27 06 E7 EC E3 91     -  ''.....'  - [SRQ] SecurityAccess[0m
[34m vcan0  7E8  [4]  [SF] ln: 3    data: 7F 27 35              -  '.'5'     - [NRC] invalidKey[0m
[31m vcan0  7E0  [3]  [SF] ln: 2    data: 27 05                 -  ''.'      - [SRQ] SecurityAccess[0m
[34m vcan0  7E8  [7]  [SF] ln: 6    data: 67 05 BA BF F2 E2     -  'g.....'  - [PSR] SecurityAccess[0m
[31m vcan0  7E0  [7]  [SF] ln: 6    data: 27 06 DE 63 A0 0C     -  ''..c..'  - [SRQ] SecurityAccess[0m
[34m vcan0  7E8  [4]  [SF] ln: 3    data: 7F 27 35              -  '.'5'     - [NRC] invalidKey[0m
[31m vcan0  7E0  [3]  [SF] ln: 2    data: 27 05                 -  ''.'      - [SRQ] SecurityAccess[0m
[34m vcan0  7E8  [7]  [SF] ln: 6    data: 67 05 FC FA 66 38     -  'g...f8'  - [PSR] SecurityAccess[0m
[31m vcan0  7E0  [7]  [SF] ln: 6    data: 27 06 71 0E 8F 2B     -  ''.q..+'  - [SRQ] SecurityAccess[0m
[34m vcan0  7E8  [4]  [SF] ln: 3    data: 7F 27 35              -  '.'5'     - [NRC] invalidKey[0m
[31m vcan0  7E0  [3]  [SF] ln: 2    data: 27 05                 -  ''.'      - [SRQ] SecurityAccess[0m
[34m vcan0  7E8  [7]  [SF] ln: 6    data: 67 05 80 A0 BE C6     -  'g.....'  - [PSR] SecurityAccess[0m
[31m vcan0  7E0  [7]  [SF] ln: 6    data: 27 06 78 47 06 43     -  ''.xG.C'  - [SRQ] SecurityAccess[0m
[34m vcan0  7E8  [4]  [SF] ln: 3    data: 7F 27 35              -  '.'5'     - [NRC] invalidKey[0m
[31m vcan0  7E0  [3]  [SF] ln: 2    data: 27 05                 -  ''.'      - [SRQ] SecurityAccess[0m
[34m vcan0  7E8  [7]  [SF] ln: 6    data: 67 05 2C 13 7D 3C     -  'g.,.}<'  - [PSR] SecurityAccess[0m
[31m vcan0  7E0  [7]  [SF] ln: 6    data: 27 06 95 75 AB 68     -  ''..u.h'  - [SRQ] SecurityAccess[0m
[34m vcan0  7E8  [4]  [SF] ln: 3    data: 7F 27 35              -  '.'5'     - [NRC] invalidKey[0m
[31m vcan0  7E0  [3]  [SF] ln: 2    data: 27 05                 -  ''.'      - [SRQ] SecurityAccess[0m
[34m vcan0  7E8  [7]  [SF] ln: 6    data: 67 05 68 91 51 8A     -  'g.h.Q.'  - [PSR] SecurityAccess[0m
[31m vcan0  7E0  [7]  [SF] ln: 6    data: 27 06 C0 44 15 FB     -  ''..D..'  - [SRQ] SecurityAccess[0m
[34m vcan0  7E8  [4]  [SF] ln: 3    data: 7F 27 35              -  '.'5'     - [NRC] invalidKey[0m
[31m vcan0  7E0  [3]  [SF] ln: 2    data: 27 05                 -  ''.'      - [SRQ] SecurityAccess[0m
[34m vcan0  7E8  [7]  [SF] ln: 6    data: 67 05 C1 2B 99 9C     -  'g..+..'  - [PSR] SecurityAccess[0m
[31m vcan0  7E0  [7]  [SF] ln: 6    data: 27 06 4D 24 53 18     -  ''.M$S.'  - [SRQ] SecurityAccess[0m
[34m vcan0  7E8  [4]  [SF] ln: 3    data: 7F 27 35              -  '.'5'     - [NRC] invalidKey[0m
[31m vcan0  7E0  [3]  [SF] ln: 2    data: 27 05                 -  ''.'      - [SRQ] SecurityAccess[0m
[34m vcan0  7E8  [7]  [SF] ln: 6    data: 67 05 4F C7 77 AA     -  'g.O.w.'  - [PSR] SecurityAccess[0m
[31m vcan0  7E0  [7]  [SF] ln: 6    data: 27 06 A0 E9 3C A1     -  ''...<.'  - [SRQ] SecurityAccess[0m
[34m vcan0  7E8  [4]  [SF] ln: 3    data: 7F 27 35              -  '.'5'     - [NRC] invalidKey[0m
[31m vcan0  7E0  [3]  [SF] ln: 2    data: 27 05                 -  ''.'      - [SRQ] SecurityAccess[0m
[34m vcan0  7E8  [7]  [SF] ln: 6    data: 67 05 6D 28 34 15     -  'g.m(4.'  - [PSR] SecurityAccess[0m
[31m vcan0  7E0  [7]  [SF] ln: 6    data: 27 06 83 81 E4 DB     -  ''.....'  - [SRQ] SecurityAccess[0m
[34m vcan0  7E8  [4]  [SF] ln: 3    data: 7F 27 35              -  '.'5'     - [NRC] invalidKey[0m
[31m vcan0  7E0  [3]  [SF] ln: 2    data: 27 05                 -  ''.'      - [SRQ] SecurityAccess[0m
[34m vcan0  7E8  [7]  [SF] ln: 6    data: 67 05 7E 52 8B B5     -  'g.~R..'  - [PSR] SecurityAccess[0m
[31m vcan0  7E0  [7]  [SF] ln: 6    data: 27 06 A0 EF 4F 30     -  ''...O0'  - [SRQ] SecurityAccess[0m
[34m vcan0  7E8  [4]  [SF] ln: 3    data: 7F 27 35              -  '.'5'     - [NRC] invalidKey[0m
[31m vcan0  7E0  [3]  [SF] ln: 2    data: 27 05                 -  ''.'      - [SRQ] SecurityAccess[0m
[34m vcan0  7E8  [7]  [SF] ln: 6    data: 67 05 81 61 FC 74     -  'g..a.t'  - [PSR] SecurityAccess[0m
[31m vcan0  7E0  [7]  [SF] ln: 6    data: 27 06 F1 B7 53 8D     -  ''...S.'  - [SRQ] SecurityAccess[0m
[34m vcan0  7E8  [4]  [SF] ln: 3    data: 7F 27 35              -  '.'5'     - [NRC] invalidKey[0m
[31m vcan0  7E0  [3]  [SF] ln: 2    data: 27 05                 -  ''.'      - [SRQ] SecurityAccess[0m
[34m vcan0  7E8  [7]  [SF] ln: 6    data: 67 05 57 A2 5E ED     -  'g.W.^.'  - [PSR] SecurityAccess[0m
[31m vcan0  7E0  [7]  [SF] ln: 6    data: 27 06 45 A3 49 F9     -  ''.E.I.'  - [SRQ] SecurityAccess[0m
[34m vcan0  7E8  [4]  [SF] ln: 3    data: 7F 27 35              -  '.'5'     - [NRC] invalidKey[0m
[31m vcan0  7E0  [3]  [SF] ln: 2    data: 27 05                 -  ''.'      - [SRQ] SecurityAccess[0m
[34m vcan0  7E8  [7]  [SF] ln: 6    data: 67 05 27 67 D3 64     -  'g.'g.d'  - [PSR] SecurityAccess[0m
[31m vcan0  7E0  [7]  [SF] ln: 6    data: 27 06 5B 21 22 59     -  ''.[!"Y'  - [SRQ] SecurityAccess[0m
[34m vcan0  7E8  [4]  [SF] ln: 3    data: 7F 27 35              -  '.'5'     - [NRC] invalidKey[0m
[31m vcan0  7E0  [3]  [SF] ln: 2    data: 27 05                 -  ''.'      - [SRQ] SecurityAccess[0m
[34m vcan0  7E8  [7]  [SF] ln: 6    data: 67 05 C4 C3 FC 5A     -  'g....Z'  - [PSR] SecurityAccess[0m
[31m vcan0  7E0  [7]  [SF] ln: 6    data: 27 06 13 D3 D3 0E     -  ''.....'  - [SRQ] SecurityAccess[0m
[34m vcan0  7E8  [4]  [SF] ln: 3    data: 7F 27 35              -  '.'5'     - [NRC] invalidKey[0m
[31m vcan0  7E0  [3]  [SF] ln: 2    data: 27 05                 -  ''.'      - [SRQ] SecurityAccess[0m
[34m vcan0  7E8  [7]  [SF] ln: 6    data: 67 05 41 07 7C 95     -  'g.A.|.'  - [PSR] SecurityAccess[0m
[31m vcan0  7E0  [7]  [SF] ln: 6    data: 27 06 8D BB 11 C5     -  ''.....'  - [SRQ] SecurityAccess[0m
[34m vcan0  7E8  [4]  [SF] ln: 3    data: 7F 27 35              -  '.'5'     - [NRC] invalidKey[0m
[31m vcan0  7E0  [3]  [SF] ln: 2    data: 27 05                 -  ''.'      - [SRQ] SecurityAccess[0m
[34m vcan0  7E8  [7]  [SF] ln: 6    data: 67 05 5D EC DB 47     -  'g.]..G'  - [PSR] SecurityAccess[0m
[31m vcan0  7E0  [7]  [SF] ln: 6    data: 27 06 63 FE 16 A6     -  ''.c...'  - [SRQ] SecurityAccess[0m
[34m vcan0  7E8  [4]  [SF] ln: 3    data: 7F 27 35              -  '.'5'     - [NRC] invalidKey[0m
[31m vcan0  7E0  [3]  [SF] ln: 2    data: 27 05                 -  ''.'      - [SRQ] SecurityAccess[0m
[34m vcan0  7E8  [7]  [SF] ln: 6    data: 67 05 41 BA DB 33     -  'g.A..3'  - [PSR] SecurityAccess[0m
[31m vcan0  7E0  [7]  [SF] ln: 6    data: 27 06 39 B4 D4 49     -  ''.9..I'  - [SRQ] SecurityAccess[0m
[34m vcan0  7E8  [4]  [SF] ln: 3    data: 7F 27 35              -  '.'5'     - [NRC] invalidKey[0m
[31m vcan0  7E0  [3]  [SF] ln: 2    data: 27 05                 -  ''.'      - [SRQ] SecurityAccess[0m
[34m vcan0  7E8  [7]  [SF] ln: 6    data: 67 05 30 86 09 E0     -  'g.0...'  - [PSR] SecurityAccess[0m
[31m vcan0  7E0  [7]  [SF] ln: 6    data: 27 06 B8 21 E4 D4     -  ''..!..'  - [SRQ] SecurityAccess[0m
[34m vcan0  7E8  [4]  [SF] ln: 3    data: 7F 27 35              -  '.'5'     - [NRC] invalidKey[0m
[31m vcan0  7E0  [3]  [SF] ln: 2    data: 27 05                 -  ''.'      - [SRQ] SecurityAccess[0m
[34m vcan0  7E8  [7]  [SF] ln: 6    data: 67 05 FA 37 15 92     -  'g..7..'  - [PSR] SecurityAccess[0m
[31m vcan0  7E0  [7]  [SF] ln: 6    data: 27 06 A6 A2 BB 3D     -  ''....='  - [SRQ] SecurityAccess[0m
[34m vcan0  7E8  [4]  [SF] ln: 3    data: 7F 27 35              -  '.'5'     - [NRC] invalidKey[0m
[31m vcan0  7E0  [3]  [SF] ln: 2    data: 27 05                 -  ''.'      - [SRQ] SecurityAccess[0m
[34m vcan0  7E8  [7]  [SF] ln: 6    data: 67 05 99 32 75 EF     -  'g..2u.'  - [PSR] SecurityAccess[0m
[31m vcan0  7E0  [7]  [SF] ln: 6    data: 27 06 D5 2F BA B4     -  ''../..'  - [SRQ] SecurityAccess[0m
[34m vcan0  7E8  [4]  [SF] ln: 3    data: 7F 27 35              -  '.'5'     - [NRC] invalidKey[0m
[31m vcan0  7E0  [3]  [SF] ln: 2    data: 27 05                 -  ''.'      - [SRQ] SecurityAccess[0m
[34m vcan0  7E8  [7]  [SF] ln: 6    data: 67 05 07 ED 0C A3     -  'g.....'  - [PSR] SecurityAccess[0m
[31m vcan0  7E0  [7]  [SF] ln: 6    data: 27 06 ED 29 DF 67     -  ''..).g'  - [SRQ] SecurityAccess[0m
[34m vcan0  7E8  [4]  [SF] ln: 3    data: 7F 27 35              -  '.'5'     - [NRC] invalidKey[0m
[31m vcan0  7E0  [3]  [SF] ln: 2    data: 27 05                 -  ''.'      - [SRQ] SecurityAccess[0m
[34m vcan0  7E8  [7]  [SF] ln: 6    data: 67 05 02 AD A0 9B     -  'g.....'  - [PSR] SecurityAccess[0m
[31m vcan0  7E0  [7]  [SF] ln: 6    data: 27 06 65 8E 9C 27     -  ''.e..''  - [SRQ] SecurityAccess[0m
[34m vcan0  7E8  [4]  [SF] ln: 3    data: 7F 27 35              -  '.'5'     - [NRC] invalidKey[0m
[31m vcan0  7E0  [3]  [SF] ln: 2    data: 27 05                 -  ''.'      - [SRQ] SecurityAccess[0m
[34m vcan0  7E8  [7]  [SF] ln: 6    data: 67 05 F5 1B 81 19     -  'g.....'  - [PSR] SecurityAccess[0m
[31m vcan0  7E0  [7]  [SF] ln: 6    data: 27 06 65 06 9B FA     -  ''.e...'  - [SRQ] SecurityAccess[0m
[34m vcan0  7E8  [4]  [SF] ln: 3    data: 7F 27 35              -  '.'5'     - [NRC] invalidKey[0m
[31m vcan0  7E0  [3]  [SF] ln: 2    data: 27 05                 -  ''.'      - [SRQ] SecurityAccess[0m
[34m vcan0  7E8  [7]  [SF] ln: 6    data: 67 05 ED 16 C2 7A     -  'g....z'  - [PSR] SecurityAccess[0m
[31m vcan0  7E0  [7]  [SF] ln: 6    data: 27 06 71 84 0D 95     -  ''.q...'  - [SRQ] SecurityAccess[0m
[34m vcan0  7E8  [4]  [SF] ln: 3    data: 7F 27 35              -  '.'5'     - [NRC] invalidKey[0m
[31m vcan0  7E0  [3]  [SF] ln: 2    data: 27 05                 -  ''.'      - [SRQ] SecurityAccess[0m
[34m vcan0  7E8  [7]  [SF] ln: 6    data: 67 05 C4 94 41 57     -  'g...AW'  - [PSR] SecurityAccess[0m
[31m vcan0  7E0  [7]  [SF] ln: 6    data: 27 06 BE 74 CC 14     -  ''..t..'  - [SRQ] SecurityAccess[0m
[34m vcan0  7E8  [4]  [SF] ln: 3    data: 7F 27 35              -  '.'5'     - [NRC] invalidKey[0m
[31m vcan0  7E0  [3]  [SF] ln: 2    data: 27 05                 -  ''.'      - [SRQ] SecurityAccess[0m
[34m vcan0  7E8  [7]  [SF] ln: 6    data: 67 05 1D BD FA 1A     -  'g.....'  - [PSR] SecurityAccess[0m
[31m vcan0  7E0  [7]  [SF] ln: 6    data: 27 06 2D 32 00 97     -  ''.-2..'  - [SRQ] SecurityAccess[0m
[34m vcan0  7E8  [4]  [SF] ln: 3    data: 7F 27 35              -  '.'5'     - [NRC] invalidKey[0m
[31m vcan0  7E0  [3]  [SF] ln: 2    data: 27 05                 -  ''.'      - [SRQ] SecurityAccess[0m
[34m vcan0  7E8  [7]  [SF] ln: 6    data: 67 05 4B 94 89 AA     -  'g.K...'  - [PSR] SecurityAccess[0m
[31m vcan0  7E0  [7]  [SF] ln: 6    data: 27 06 15 CA BA 09     -  ''.....'  - [SRQ] SecurityAccess[0m
[34m vcan0  7E8  [4]  [SF] ln: 3    data: 7F 27 35              -  '.'5'     - [NRC] invalidKey[0m
[31m vcan0  7E0  [3]  [SF] ln: 2    data: 27 05                 -  ''.'      - [SRQ] SecurityAccess[0m
[34m vcan0  7E8  [7]  [SF] ln: 6    data: 67 05 98 4A A9 91     -  'g..J..'  - [PSR] SecurityAccess[0m
[31m vcan0  7E0  [7]  [SF] ln: 6    data: 27 06 61 4A FE 0E     -  ''.aJ..'  - [SRQ] SecurityAccess[0m
[34m vcan0  7E8  [4]  [SF] ln: 3    data: 7F 27 35              -  '.'5'     - [NRC] invalidKey[0m
[31m vcan0  7E0  [3]  [SF] ln: 2    data: 27 05                 -  ''.'      - [SRQ] SecurityAccess[0m
[34m vcan0  7E8  [7]  [SF] ln: 6    data: 67 05 E5 55 F6 A8     -  'g..U..'  - [PSR] SecurityAccess[0m
[31m vcan0  7E0  [7]  [SF] ln: 6    data: 27 06 5B 80 90 02     -  ''.[...'  - [SRQ] SecurityAccess[0m
[34m vcan0  7E8  [4]  [SF] ln: 3    data: 7F 27 35              -  '.'5'     - [NRC] invalidKey[0m
[31m vcan0  7E0  [3]  [SF] ln: 2    data: 27 05                 -  ''.'      - [SRQ] SecurityAccess[0m
[34m vcan0  7E8  [7]  [SF] ln: 6    data: 67 05 AE 93 D2 00     -  'g.....'  - [PSR] SecurityAccess[0m
[31m vcan0  7E0  [7]  [SF] ln: 6    data: 27 06 C5 F6 72 0B     -  ''...r.'  - [SRQ] SecurityAccess[0m
[34m vcan0  7E8  [4]  [SF] ln: 3    data: 7F 27 35              -  '.'5'     - [NRC] invalidKey[0m
[31m vcan0  7E0  [3]  [SF] ln: 2    data: 27 05                 -  ''.'      - [SRQ] SecurityAccess[0m
[34m vcan0  7E8  [7]  [SF] ln: 6    data: 67 05 9E B2 5A E3     -  'g...Z.'  - [PSR] SecurityAccess[0m
[31m vcan0  7E0  [7]  [SF] ln: 6    data: 27 06 09 A6 80 11     -  ''.....'  - [SRQ] SecurityAccess[0m
[34m vcan0  7E8  [4]  [SF] ln: 3    data: 7F 27 35              -  '.'5'     - [NRC] invalidKey[0m
[31m vcan0  7E0  [3]  [SF] ln: 2    data: 27 05                 -  ''.'      - [SRQ] SecurityAccess[0m
[34m vcan0  7E8  [7]  [SF] ln: 6    data: 67 05 AE 59 D5 23     -  'g..Y.#'  - [PSR] SecurityAccess[0m
[31m vcan0  7E0  [7]  [SF] ln: 6    data: 27 06 EB CD D4 4B     -  ''....K'  - [SRQ] SecurityAccess[0m
[34m vcan0  7E8  [4]  [SF] ln: 3    data: 7F 27 35              -  '.'5'     - [NRC] invalidKey[0m
[31m vcan0  7E0  [3]  [SF] ln: 2    data: 27 05                 -  ''.'      - [SRQ] SecurityAccess[0m
[34m vcan0  7E8  [7]  [SF] ln: 6    data: 67 05 D4 D0 F9 3A     -  'g....:'  - [PSR] SecurityAccess[0m
[31m vcan0  7E0  [7]  [SF] ln: 6    data: 27 06 00 C8 D7 CF     -  ''.....'  - [SRQ] SecurityAccess[0m
[34m vcan0  7E8  [4]  [SF] ln: 3    data: 7F 27 35              -  '.'5'     - [NRC] invalidKey[0m
[31m vcan0  7E0  [3]  [SF] ln: 2    data: 27 05                 -  ''.'      - [SRQ] SecurityAccess[0m
[34m vcan0  7E8  [7]  [SF] ln: 6    data: 67 05 06 DD 7A 6C     -  'g...zl'  - [PSR] SecurityAccess[0m
[31m vcan0  7E0  [7]  [SF] ln: 6    data: 27 06 E5 8F 80 F1     -  ''.....'  - [SRQ] SecurityAccess[0m
[34m vcan0  7E8  [4]  [SF] ln: 3    data: 7F 27 35              -  '.'5'     - [NRC] invalidKey[0m
[31m vcan0  7E0  [3]  [SF] ln: 2    data: 27 05                 -  ''.'      - [SRQ] SecurityAccess[0m
[34m vcan0  7E8  [7]  [SF] ln: 6    data: 67 05 E7 0F 1B D3     -  'g.....'  - [PSR] SecurityAccess[0m
[31m vcan0  7E0  [7]  [SF] ln: 6    data: 27 06 90 BF 09 BB     -  ''.....'  - [SRQ] SecurityAccess[0m
[34m vcan0  7E8  [4]  [SF] ln: 3    data: 7F 27 35              -  '.'5'     - [NRC] invalidKey[0m
[31m vcan0  7E0  [3]  [SF] ln: 2    data: 27 05                 -  ''.'      - [SRQ] SecurityAccess[0m
[34m vcan0  7E8  [7]  [SF] ln: 6    data: 67 05 67 6E 90 FB     -  'g.gn..'  - [PSR] SecurityAccess[0m
[31m vcan0  7E0  [7]  [SF] ln: 6    data: 27 06 64 98 77 BA     -  ''.d.w.'  - [SRQ] SecurityAccess[0m
[34m vcan0  7E8  [4]  [SF] ln: 3    data: 7F 27 35              -  '.'5'     - [NRC] invalidKey[0m
[31m vcan0  7E0  [3]  [SF] ln: 2    data: 27 05                 -  ''.'      - [SRQ] SecurityAccess[0m
[34m vcan0  7E8  [7]  [SF] ln: 6    data: 67 05 64 E4 2B E9     -  'g.d.+.'  - [PSR] SecurityAccess[0m
[31m vcan0  7E0  [7]  [SF] ln: 6    data: 27 06 F9 9A FB 20     -  ''.... '  - [SRQ] SecurityAccess[0m
[34m vcan0  7E8  [4]  [SF] ln: 3    data: 7F 27 35              -  '.'5'     - [NRC] invalidKey[0m
[31m vcan0  7E0  [3]  [SF] ln: 2    data: 27 05                 -  ''.'      - [SRQ] SecurityAccess[0m
[34m vcan0  7E8  [7]  [SF] ln: 6    data: 67 05 F4 E3 22 8D     -  'g...".'  - [PSR] SecurityAccess[0m
[31m vcan0  7E0  [7]  [SF] ln: 6    data: 27 06 31 67 A9 14     -  ''.1g..'  - [SRQ] SecurityAccess[0m
[34m vcan0  7E8  [4]  [SF] ln: 3    data: 7F 27 35              -  '.'5'     - [NRC] invalidKey[0m
[31m vcan0  7E0  [3]  [SF] ln: 2    data: 27 05                 -  ''.'      - [SRQ] SecurityAccess[0m
[34m vcan0  7E8  [7]  [SF] ln: 6    data: 67 05 DC 7F 69 B2     -  'g...i.'  - [PSR] SecurityAccess[0m
[31m vcan0  7E0  [7]  [SF] ln: 6    data: 27 06 CE 17 5D 17     -  ''...].'  - [SRQ] SecurityAccess[0m
[34m vcan0  7E8  [4]  [SF] ln: 3    data: 7F 27 35              -  '.'5'     - [NRC] invalidKey[0m
[31m vcan0  7E0  [3]  [SF] ln: 2    data: 27 05                 -  ''.'      - [SRQ] SecurityAccess[0m
[34m vcan0  7E8  [7]  [SF] ln: 6    data: 67 05 1B E4 18 52     -  'g....R'  - [PSR] SecurityAccess[0m
[31m vcan0  7E0  [7]  [SF] ln: 6    data: 27 06 86 C9 7A 56     -  ''...zV'  - [SRQ] SecurityAccess[0m
[34m vcan0  7E8  [4]  [SF] ln: 3    data: 7F 27 35              -  '.'5'     - [NRC] invalidKey[0m
[31m vcan0  7E0  [3]  [SF] ln: 2    data: 27 05                 -  ''.'      - [SRQ] SecurityAccess[0m
[34m vcan0  7E8  [7]  [SF] ln: 6    data: 67 05 82 99 0A CB     -  'g.....'  - [PSR] SecurityAccess[0m
[31m vcan0  7E0  [7]  [SF] ln: 6    data: 27 06 31 16 CD 0F     -  ''.1...'  - [SRQ] SecurityAccess[0m
[34m vcan0  7E8  [4]  [SF] ln: 3    data: 7F 27 35              -  '.'5'     - [NRC] invalidKey[0m
[31m vcan0  7E0  [3]  [SF] ln: 2    data: 27 05                 -  ''.'      - [SRQ] SecurityAccess[0m
[34m vcan0  7E8  [7]  [SF] ln: 6    data: 67 05 43 8B 1D F3     -  'g.C...'  - [PSR] SecurityAccess[0m
[31m vcan0  7E0  [7]  [SF] ln: 6    data: 27 06 55 7B E1 CF     -  ''.U{..'  - [SRQ] SecurityAccess[0m
[34m vcan0  7E8  [4]  [SF] ln: 3    data: 7F 27 35              -  '.'5'     - [NRC] invalidKey[0m
[31m vcan0  7E0  [3]  [SF] ln: 2    data: 27 05                 -  ''.'      - [SRQ] SecurityAccess[0m
[34m vcan0  7E8  [7]  [SF] ln: 6    data: 67 05 EF 84 C7 8A     -  'g.....'  - [PSR] SecurityAccess[0m
[31m vcan0  7E0  [7]  [SF] ln: 6    data: 27 06 21 EE 86 2E     -  ''.!...'  - [SRQ] SecurityAccess[0m
[34m vcan0  7E8  [4]  [SF] ln: 3    data: 7F 27 35              -  '.'5'     - [NRC] invalidKey[0m
[31m vcan0  7E0  [3]  [SF] ln: 2    data: 27 05                 -  ''.'      - [SRQ] SecurityAccess[0m
[34m vcan0  7E8  [7]  [SF] ln: 6    data: 67 05 22 43 25 9E     -  'g."C%.'  - [PSR] SecurityAccess[0m
[31m vcan0  7E0  [7]  [SF] ln: 6    data: 27 06 22 6C 23 29     -  ''."l#)'  - [SRQ] SecurityAccess[0m
[34m vcan0  7E8  [4]  [SF] ln: 3    data: 7F 27 35              -  '.'5'     - [NRC] invalidKey[0m
[31m vcan0  7E0  [3]  [SF] ln: 2    data: 27 05                 -  ''.'      - [SRQ] SecurityAccess[0m
[34m vcan0  7E8  [7]  [SF] ln: 6    data: 67 05 31 54 D3 6B     -  'g.1T.k'  - [PSR] SecurityAccess[0m
[31m vcan0  7E0  [7]  [SF] ln: 6    data: 27 06 9A F0 A2 50     -  ''....P'  - [SRQ] SecurityAccess[0m
[34m vcan0  7E8  [4]  [SF] ln: 3    data: 7F 27 35              -  '.'5'     - [NRC] invalidKey[0m
[31m vcan0  7E0  [3]  [SF] ln: 2    data: 27 05                 -  ''.'      - [SRQ] SecurityAccess[0m
[34m vcan0  7E8  [7]  [SF] ln: 6    data: 67 05 D9 CF 98 86     -  'g.....'  - [PSR] SecurityAccess[0m
[31m vcan0  7E0  [7]  [SF] ln: 6    data: 27 06 AA E6 EC 73     -  ''....s'  - [SRQ] SecurityAccess[0m
[34m vcan0  7E8  [4]  [SF] ln: 3    data: 7F 27 35              -  '.'5'     - [NRC] invalidKey[0m
[31m vcan0  7E0  [3]  [SF] ln: 2    data: 27 05                 -  ''.'      - [SRQ] SecurityAccess[0m
[34m vcan0  7E8  [7]  [SF] ln: 6    data: 67 05 A6 03 F2 22     -  'g...."'  - [PSR] SecurityAccess[0m
[31m vcan0  7E0  [7]  [SF] ln: 6    data: 27 06 04 08 58 85     -  ''...X.'  - [SRQ] SecurityAccess[0m
[34m vcan0  7E8  [4]  [SF] ln: 3    data: 7F 27 35              -  '.'5'     - [NRC] invalidKey[0m
[31m vcan0  7E0  [3]  [SF] ln: 2    data: 27 05                 -  ''.'      - [SRQ] SecurityAccess[0m
[34m vcan0  7E8  [7]  [SF] ln: 6    data: 67 05 0D 1D B7 E6     -  'g.....'  - [PSR] SecurityAccess[0m
[31m vcan0  7E0  [7]  [SF] ln: 6    data: 27 06 F7 19 89 68     -  ''....h'  - [SRQ] SecurityAccess[0m
[34m vcan0  7E8  [4]  [SF] ln: 3    data: 7F 27 35              -  '.'5'     - [NRC] invalidKey[0m
[31m vcan0  7E0  [3]  [SF] ln: 2    data: 27 05                 -  ''.'      - [SRQ] SecurityAccess[0m
[34m vcan0  7E8  [7]  [SF] ln: 6    data: 67 05 E7 20 15 AB     -  'g.. ..'  - [PSR] SecurityAccess[0m
[31m vcan0  7E0  [7]  [SF] ln: 6    data: 27 06 71 AA E8 14     -  ''.q...'  - [SRQ] SecurityAccess[0m
[34m vcan0  7E8  [4]  [SF] ln: 3    data: 7F 27 35              -  '.'5'     - [NRC] invalidKey[0m
[31m vcan0  7E0  [3]  [SF] ln: 2    data: 27 05                 -  ''.'      - [SRQ] SecurityAccess[0m
[34m vcan0  7E8  [7]  [SF] ln: 6    data: 67 05 48 36 0D 54     -  'g.H6.T'  - [PSR] SecurityAccess[0m
[31m vcan0  7E0  [7]  [SF] ln: 6    data: 27 06 DA A8 E0 24     -  ''....$'  - [SRQ] SecurityAccess[0m
[34m vcan0  7E8  [4]  [SF] ln: 3    data: 7F 27 35              -  '.'5'     - [NRC] invalidKey[0m
[31m vcan0  7E0  [3]  [SF] ln: 2    data: 27 05                 -  ''.'      - [SRQ] SecurityAccess[0m
[34m vcan0  7E8  [7]  [SF] ln: 6    data: 67 05 5F 73 78 CA     -  'g._sx.'  - [PSR] SecurityAccess[0m
[31m vcan0  7E0  [7]  [SF] ln: 6    data: 27 06 44 F1 42 FD     -  ''.D.B.'  - [SRQ] SecurityAccess[0m
[34m vcan0  7E8  [4]  [SF] ln: 3    data: 7F 27 35              -  '.'5'     - [NRC] invalidKey[0m
[31m vcan0  7E0  [3]  [SF] ln: 2    data: 27 05                 -  ''.'      - [SRQ] SecurityAccess[0m
[34m vcan0  7E8  [7]  [SF] ln: 6    data: 67 05 E8 0E D6 06     -  'g.....'  - [PSR] SecurityAccess[0m
[31m vcan0  7E0  [7]  [SF] ln: 6    data: 27 06 08 91 FD 98     -  ''.....'  - [SRQ] SecurityAccess[0m
[34m vcan0  7E8  [4]  [SF] ln: 3    data: 7F 27 35              -  '.'5'     - [NRC] invalidKey[0m
[31m vcan0  7E0  [3]  [SF] ln: 2    data: 27 05                 -  ''.'      - [SRQ] SecurityAccess[0m
[34m vcan0  7E8  [7]  [SF] ln: 6    data: 67 05 2B A6 FD 8D     -  'g.+...'  - [PSR] SecurityAccess[0m
[31m vcan0  7E0  [7]  [SF] ln: 6    data: 27 06 2F 40 B9 62     -  ''./@.b'  - [SRQ] SecurityAccess[0m
[34m vcan0  7E8  [4]  [SF] ln: 3    data: 7F 27 35              -  '.'5'     - [NRC] invalidKey[0m
[31m vcan0  7E0  [3]  [SF] ln: 2    data: 27 05                 -  ''.'      - [SRQ] SecurityAccess[0m
[34m vcan0  7E8  [7]  [SF] ln: 6    data: 67 05 0B 3E 46 3C     -  'g..>F<'  - [PSR] SecurityAccess[0m
[31m vcan0  7E0  [7]  [SF] ln: 6    data: 27 06 75 25 BF B2     -  ''.u%..'  - [SRQ] SecurityAccess[0m
[34m vcan0  7E8  [4]  [SF] ln: 3    data: 7F 27 35              -  '.'5'     - [NRC] invalidKey[0m
[31m vcan0  7E0  [3]  [SF] ln: 2    data: 27 05                 -  ''.'      - [SRQ] SecurityAccess[0m
[34m vcan0  7E8  [7]  [SF] ln: 6    data: 67 05 A7 27 9A 7E     -  'g..'.~'  - [PSR] SecurityAccess[0m
[31m vcan0  7E0  [7]  [SF] ln: 6    data: 27 06 59 20 A8 2A     -  ''.Y .*'  - [SRQ] SecurityAccess[0m
[34m vcan0  7E8  [4]  [SF] ln: 3    data: 7F 27 35              -  '.'5'     - [NRC] invalidKey[0m
[31m vcan0  7E0  [3]  [SF] ln: 2    data: 27 05                 -  ''.'      - [SRQ] SecurityAccess[0m
[34m vcan0  7E8  [7]  [SF] ln: 6    data: 67 05 27 6B 85 C2     -  'g.'k..'  - [PSR] SecurityAccess[0m
[31m vcan0  7E0  [7]  [SF] ln: 6    data: 27 06 63 14 22 45     -  ''.c."E'  - [SRQ] SecurityAccess[0m
[34m vcan0  7E8  [4]  [SF] ln: 3    data: 7F 27 35              -  '.'5'     - [NRC] invalidKey[0m
[31m vcan0  7E0  [3]  [SF] ln: 2    data: 27 05                 -  ''.'      - [SRQ] SecurityAccess[0m
[34m vcan0  7E8  [7]  [SF] ln: 6    data: 67 05 A2 56 F3 AB     -  'g..V..'  - [PSR] SecurityAccess[0m
[31m vcan0  7E0  [7]  [SF] ln: 6    data: 27 06 51 69 7B FB     -  ''.Qi{.'  - [SRQ] SecurityAccess[0m
[34m vcan0  7E8  [4]  [SF] ln: 3    data: 7F 27 35              -  '.'5'     - [NRC] invalidKey[0m
[31m vcan0  7E0  [3]  [SF] ln: 2    data: 27 05                 -  ''.'      - [SRQ] SecurityAccess[0m
[34m vcan0  7E8  [7]  [SF] ln: 6    data: 67 05 BC AB A1 47     -  'g....G'  - [PSR] SecurityAccess[0m
[31m vcan0  7E0  [7]  [SF] ln: 6    data: 27 06 CC 06 16 77     -  ''....w'  - [SRQ] SecurityAccess[0m
[34m vcan0  7E8  [4]  [SF] ln: 3    data: 7F 27 35              -  '.'5'     - [NRC] invalidKey[0m
[31m vcan0  7E0  [3]  [SF] ln: 2    data: 27 05                 -  ''.'      - [SRQ] SecurityAccess[0m
[34m vcan0  7E8  [7]  [SF] ln: 6    data: 67 05 DF CB C9 F2     -  'g.....'  - [PSR] SecurityAccess[0m
[31m vcan0  7E0  [7]  [SF] ln: 6    data: 27 06 A1 ED 85 64     -  ''....d'  - [SRQ] SecurityAccess[0m
[34m vcan0  7E8  [4]  [SF] ln: 3    data: 7F 27 35              -  '.'5'     - [NRC] invalidKey[0m
[31m vcan0  7E0  [3]  [SF] ln: 2    data: 27 05                 -  ''.'      - [SRQ] SecurityAccess[0m
[34m vcan0  7E8  [7]  [SF] ln: 6    data: 67 05 F5 C0 AB BC     -  'g.....'  - [PSR] SecurityAccess[0m
[31m vcan0  7E0  [7]  [SF] ln: 6    data: 27 06 C3 CE 21 2D     -  ''...!-'  - [SRQ] SecurityAccess[0m
[34m vcan0  7E8  [4]  [SF] ln: 3    data: 7F 27 35              -  '.'5'     - [NRC] invalidKey[0m
[31m vcan0  7E0  [3]  [SF] ln: 2    data: 27 05                 -  ''.'      - [SRQ] SecurityAccess[0m
[34m vcan0  7E8  [7]  [SF] ln: 6    data: 67 05 E3 7A 56 CE     -  'g..zV.'  - [PSR] SecurityAccess[0m
[31m vcan0  7E0  [7]  [SF] ln: 6    data: 27 06 B4 7C 40 1C     -  ''..|@.'  - [SRQ] SecurityAccess[0m
[34m vcan0  7E8  [4]  [SF] ln: 3    data: 7F 27 35              -  '.'5'     - [NRC] invalidKey[0m
[31m vcan0  7E0  [3]  [SF] ln: 2    data: 27 05                 -  ''.'      - [SRQ] SecurityAccess[0m
[34m vcan0  7E8  [7]  [SF] ln: 6    data: 67 05 93 1A 35 A0     -  'g...5.'  - [PSR] SecurityAccess[0m
[31m vcan0  7E0  [7]  [SF] ln: 6    data: 27 06 93 73 8A 89     -  ''..s..'  - [SRQ] SecurityAccess[0m
[34m vcan0  7E8  [4]  [SF] ln: 3    data: 7F 27 35              -  '.'5'     - [NRC] invalidKey[0m
[31m vcan0  7E0  [3]  [SF] ln: 2    data: 27 05                 -  ''.'      - [SRQ] SecurityAccess[0m
[34m vcan0  7E8  [7]  [SF] ln: 6    data: 67 05 DC C7 25 64     -  'g...%d'  - [PSR] SecurityAccess[0m
[31m vcan0  7E0  [7]  [SF] ln: 6    data: 27 06 38 B4 6D FE     -  ''.8.m.'  - [SRQ] SecurityAccess[0m
[34m vcan0  7E8  [4]  [SF] ln: 3    data: 7F 27 35              -  '.'5'     - [NRC] invalidKey[0m
[31m vcan0  7E0  [3]  [SF] ln: 2    data: 27 05                 -  ''.'      - [SRQ] SecurityAccess[0m
[34m vcan0  7E8  [7]  [SF] ln: 6    data: 67 05 D2 56 15 0B     -  'g..V..'  - [PSR] SecurityAccess[0m
[31m vcan0  7E0  [7]  [SF] ln: 6    data: 27 06 7A FD 30 69     -  ''.z.0i'  - [SRQ] SecurityAccess[0m
[34m vcan0  7E8  [4]  [SF] ln: 3    data: 7F 27 35              -  '.'5'     - [NRC] invalidKey[0m
[31m vcan0  7E0  [3]  [SF] ln: 2    data: 27 05                 -  ''.'      - [SRQ] SecurityAccess[0m
[34m vcan0  7E8  [7]  [SF] ln: 6    data: 67 05 A0 93 51 7B     -  'g...Q{'  - [PSR] SecurityAccess[0m
[31m vcan0  7E0  [7]  [SF] ln: 6    data: 27 06 60 18 BE F5     -  ''.`...'  - [SRQ] SecurityAccess[0m
[34m vcan0  7E8  [4]  [SF] ln: 3    data: 7F 27 35              -  '.'5'     - [NRC] invalidKey[0m
[31m vcan0  7E0  [3]  [SF] ln: 2    data: 27 05                 -  ''.'      - [SRQ] SecurityAccess[0m
[34m vcan0  7E8  [7]  [SF] ln: 6    data: 67 05 97 47 70 7B     -  'g..Gp{'  - [PSR] SecurityAccess[0m
[31m vcan0  7E0  [7]  [SF] ln: 6    data: 27 06 AA 58 B0 7B     -  ''..X.{'  - [SRQ] SecurityAccess[0m
[34m vcan0  7E8  [4]  [SF] ln: 3    data: 7F 27 35              -  '.'5'     - [NRC] invalidKey[0m
[31m vcan0  7E0  [3]  [SF] ln: 2    data: 27 05                 -  ''.'      - [SRQ] SecurityAccess[0m
[34m vcan0  7E8  [7]  [SF] ln: 6    data: 67 05 61 22 85 41     -  'g.a".A'  - [PSR] SecurityAccess[0m
[31m vcan0  7E0  [7]  [SF] ln: 6    data: 27 06 13 B9 49 85     -  ''...I.'  - [SRQ] SecurityAccess[0m
[34m vcan0  7E8  [4]  [SF] ln: 3    data: 7F 27 35              -  '.'5'     - [NRC] invalidKey[0m
[31m vcan0  7E0  [3]  [SF] ln: 2    data: 27 05                 -  ''.'      - [SRQ] SecurityAccess[0m
[34m vcan0  7E8  [7]  [SF] ln: 6    data: 67 05 81 92 7D 84     -  'g...}.'  - [PSR] SecurityAccess[0m
[31m vcan0  7E0  [7]  [SF] ln: 6    data: 27 06 7B CC 22 9C     -  ''.{.".'  - [SRQ] SecurityAccess[0m
[34m vcan0  7E8  [4]  [SF] ln: 3    data: 7F 27 35              -  '.'5'     - [NRC] invalidKey[0m
[31m vcan0  7E0  [3]  [SF] ln: 2    data: 27 05                 -  ''.'      - [SRQ] SecurityAccess[0m
[34m vcan0  7E8  [7]  [SF] ln: 6    data: 67 05 46 D5 9C CF     -  'g.F...'  - [PSR] SecurityAccess[0m
[31m vcan0  7E0  [7]  [SF] ln: 6    data: 27 06 39 F3 D6 88     -  ''.9...'  - [SRQ] SecurityAccess[0m
[34m vcan0  7E8  [4]  [SF] ln: 3    data: 7F 27 35              -  '.'5'     - [NRC] invalidKey[0m
[31m vcan0  7E0  [3]  [SF] ln: 2    data: 27 05                 -  ''.'      - [SRQ] SecurityAccess[0m
[34m vcan0  7E8  [7]  [SF] ln: 6    data: 67 05 3E 85 7C BB     -  'g.>.|.'  - [PSR] SecurityAccess[0m
[31m vcan0  7E0  [7]  [SF] ln: 6    data: 27 06 B8 5F A9 03     -  ''.._..'  - [SRQ] SecurityAccess[0m
[34m vcan0  7E8  [4]  [SF] ln: 3    data: 7F 27 35              -  '.'5'     - [NRC] invalidKey[0m
[31m vcan0  7E0  [3]  [SF] ln: 2    data: 27 05                 -  ''.'      - [SRQ] SecurityAccess[0m
[34m vcan0  7E8  [7]  [SF] ln: 6    data: 67 05 C1 76 43 A7     -  'g..vC.'  - [PSR] SecurityAccess[0m
[31m vcan0  7E0  [7]  [SF] ln: 6    data: 27 06 C2 FA 0D BB     -  ''.....'  - [SRQ] SecurityAccess[0m
[34m vcan0  7E8  [4]  [SF] ln: 3    data: 7F 27 35              -  '.'5'     - [NRC] invalidKey[0m
[31m vcan0  7E0  [3]  [SF] ln: 2    data: 27 05                 -  ''.'      - [SRQ] SecurityAccess[0m
[34m vcan0  7E8  [7]  [SF] ln: 6    data: 67 05 91 5C 6F C4     -  'g..\o.'  - [PSR] SecurityAccess[0m
[31m vcan0  7E0  [7]  [SF] ln: 6    data: 27 06 07 7B DB 51     -  ''..{.Q'  - [SRQ] SecurityAccess[0m
[34m vcan0  7E8  [4]  [SF] ln: 3    data: 7F 27 35              -  '.'5'     - [NRC] invalidKey[0m
[31m vcan0  7E0  [3]  [SF] ln: 2    data: 27 05                 -  ''.'      - [SRQ] SecurityAccess[0m
[34m vcan0  7E8  [7]  [SF] ln: 6    data: 67 05 2F 11 09 41     -  'g./..A'  - [PSR] SecurityAccess[0m
[31m vcan0  7E0  [7]  [SF] ln: 6    data: 27 06 DF B4 71 61     -  ''...qa'  - [SRQ] SecurityAccess[0m
[34m vcan0  7E8  [4]  [SF] ln: 3    data: 7F 27 35              -  '.'5'     - [NRC] invalidKey[0m
[31m vcan0  7E0  [3]  [SF] ln: 2    data: 27 05                 -  ''.'      - [SRQ] SecurityAccess[0m
[34m vcan0  7E8  [7]  [SF] ln: 6    data: 67 05 88 EF B0 BF     -  'g.....'  - [PSR] SecurityAccess[0m
[31m vcan0  7E0  [7]  [SF] ln: 6    data: 27 06 FB 82 6A 22     -  ''...j"'  - [SRQ] SecurityAccess[0m
[34m vcan0  7E8  [4]  [SF] ln: 3    data: 7F 27 35              -  '.'5'     - [NRC] invalidKey[0m
[31m vcan0  7E0  [3]  [SF] ln: 2    data: 27 05                 -  ''.'      - [SRQ] SecurityAccess[0m
[34m vcan0  7E8  [7]  [SF] ln: 6    data: 67 05 5F 1F 13 5A     -  'g._..Z'  - [PSR] SecurityAccess[0m
[31m vcan0  7E0  [7]  [SF] ln: 6    data: 27 06 A8 B2 84 B3     -  ''.....'  - [SRQ] SecurityAccess[0m
[34m vcan0  7E8  [4]  [SF] ln: 3    data: 7F 27 35              -  '.'5'     - [NRC] invalidKey[0m
[31m vcan0  7E0  [3]  [SF] ln: 2    data: 27 05                 -  ''.'      - [SRQ] SecurityAccess[0m
[34m vcan0  7E8  [7]  [SF] ln: 6    data: 67 05 A7 08 08 27     -  'g....''  - [PSR] SecurityAccess[0m
[31m vcan0  7E0  [7]  [SF] ln: 6    data: 27 06 66 32 1A 82     -  ''.f2..'  - [SRQ] SecurityAccess[0m
[34m vcan0  7E8  [4]  [SF] ln: 3    data: 7F 27 35              -  '.'5'     - [NRC] invalidKey[0m
[31m vcan0  7E0  [3]  [SF] ln: 2    data: 27 05                 -  ''.'      - [SRQ] SecurityAccess[0m
[34m vcan0  7E8  [7]  [SF] ln: 6    data: 67 05 92 7F E7 7B     -  'g....{'  - [PSR] SecurityAccess[0m
[31m vcan0  7E0  [7]  [SF] ln: 6    data: 27 06 68 E8 0A FF     -  ''.h...'  - [SRQ] SecurityAccess[0m
[34m vcan0  7E8  [4]  [SF] ln: 3    data: 7F 27 35              -  '.'5'     - [NRC] invalidKey[0m
[31m vcan0  7E0  [3]  [SF] ln: 2    data: 27 05                 -  ''.'      - [SRQ] SecurityAccess[0m
[34m vcan0  7E8  [7]  [SF] ln: 6    data: 67 05 C3 F1 C1 AF     -  'g.....'  - [PSR] SecurityAccess[0m
[31m vcan0  7E0  [7]  [SF] ln: 6    data: 27 06 DC CC FC 44     -  ''....D'  - [SRQ] SecurityAccess[0m
[34m vcan0  7E8  [4]  [SF] ln: 3    data: 7F 27 35              -  '.'5'     - [NRC] invalidKey[0m
[31m vcan0  7E0  [3]  [SF] ln: 2    data: 27 05                 -  ''.'      - [SRQ] SecurityAccess[0m
[34m vcan0  7E8  [7]  [SF] ln: 6    data: 67 05 C6 D2 81 4E     -  'g....N'  - [PSR] SecurityAccess[0m
[31m vcan0  7E0  [7]  [SF] ln: 6    data: 27 06 2C 80 8C DE     -  ''.,...'  - [SRQ] SecurityAccess[0m
[34m vcan0  7E8  [4]  [SF] ln: 3    data: 7F 27 35              -  '.'5'     - [NRC] invalidKey[0m
[31m vcan0  7E0  [3]  [SF] ln: 2    data: 27 05                 -  ''.'      - [SRQ] SecurityAccess[0m
[34m vcan0  7E8  [7]  [SF] ln: 6    data: 67 05 5C 85 EC FB     -  'g.\...'  - [PSR] SecurityAccess[0m
[31m vcan0  7E0  [7]  [SF] ln: 6    data: 27 06 43 3E 06 80     -  ''.C>..'  - [SRQ] SecurityAccess[0m
[34m vcan0  7E8  [4]  [SF] ln: 3    data: 7F 27 35              -  '.'5'     - [NRC] invalidKey[0m
[31m vcan0  7E0  [3]  [SF] ln: 2    data: 27 05                 -  ''.'      - [SRQ] SecurityAccess[0m
[34m vcan0  7E8  [7]  [SF] ln: 6    data: 67 05 21 4D C6 9E     -  'g.!M..'  - [PSR] SecurityAccess[0m
[31m vcan0  7E0  [7]  [SF] ln: 6    data: 27 06 00 56 FE CA     -  ''..V..'  - [SRQ] SecurityAccess[0m
[34m vcan0  7E8  [4]  [SF] ln: 3    data: 7F 27 35              -  '.'5'     - [NRC] invalidKey[0m
[31m vcan0  7E0  [3]  [SF] ln: 2    data: 27 05                 -  ''.'      - [SRQ] SecurityAccess[0m
[34m vcan0  7E8  [7]  [SF] ln: 6    data: 67 05 51 30 93 CF     -  'g.Q0..'  - [PSR] SecurityAccess[0m
[31m vcan0  7E0  [7]  [SF] ln: 6    data: 27 06 6F B7 D0 87     -  ''.o...'  - [SRQ] SecurityAccess[0m
[34m vcan0  7E8  [4]  [SF] ln: 3    data: 7F 27 35              -  '.'5'     - [NRC] invalidKey[0m
[31m vcan0  7E0  [3]  [SF] ln: 2    data: 27 05                 -  ''.'      - [SRQ] SecurityAccess[0m
[34m vcan0  7E8  [7]  [SF] ln: 6    data: 67 05 EC D8 48 39     -  'g...H9'  - [PSR] SecurityAccess[0m
[31m vcan0  7E0  [7]  [SF] ln: 6    data: 27 06 76 64 54 4B     -  ''.vdTK'  - [SRQ] SecurityAccess[0m
[34m vcan0  7E8  [4]  [SF] ln: 3    data: 7F 27 35              -  '.'5'     - [NRC] invalidKey[0m
[31m vcan0  7E0  [3]  [SF] ln: 2    data: 27 05                 -  ''.'      - [SRQ] SecurityAccess[0m
[34m vcan0  7E8  [7]  [SF] ln: 6    data: 67 05 34 D9 D9 A2     -  'g.4...'  - [PSR] SecurityAccess[0m
[31m vcan0  7E0  [7]  [SF] ln: 6    data: 27 06 54 3F 27 D6     -  ''.T?'.'  - [SRQ] SecurityAccess[0m
[34m vcan0  7E8  [4]  [SF] ln: 3    data: 7F 27 35              -  '.'5'     - [NRC] invalidKey[0m
[31m vcan0  7E0  [3]  [SF] ln: 2    data: 27 05                 -  ''.'      - [SRQ] SecurityAccess[0m
[34m vcan0  7E8  [7]  [SF] ln: 6    data: 67 05 38 11 F5 FA     -  'g.8...'  - [PSR] SecurityAccess[0m
[31m vcan0  7E0  [7]  [SF] ln: 6    data: 27 06 05 50 E5 33     -  ''..P.3'  - [SRQ] SecurityAccess[0m
[34m vcan0  7E8  [4]  [SF] ln: 3    data: 7F 27 35              -  '.'5'     - [NRC] invalidKey[0m
[31m vcan0  7E0  [3]  [SF] ln: 2    data: 27 05                 -  ''.'      - [SRQ] SecurityAccess[0m
[34m vcan0  7E8  [7]  [SF] ln: 6    data: 67 05 FB B4 A1 2F     -  'g..../'  - [PSR] SecurityAccess[0m
[31m vcan0  7E0  [7]  [SF] ln: 6    data: 27 06 5B 7B EE DC     -  ''.[{..'  - [SRQ] SecurityAccess[0m
[34m vcan0  7E8  [4]  [SF] ln: 3    data: 7F 27 35              -  '.'5'     - [NRC] invalidKey[0m
[31m vcan0  7E0  [3]  [SF] ln: 2    data: 27 05                 -  ''.'      - [SRQ] SecurityAccess[0m
[34m vcan0  7E8  [7]  [SF] ln: 6    data: 67 05 79 13 A0 B8     -  'g.y...'  - [PSR] SecurityAccess[0m
[31m vcan0  7E0  [7]  [SF] ln: 6    data: 27 06 16 55 2D 40     -  ''..U-@'  - [SRQ] SecurityAccess[0m
[34m vcan0  7E8  [4]  [SF] ln: 3    data: 7F 27 35              -  '.'5'     - [NRC] invalidKey[0m
[31m vcan0  7E0  [3]  [SF] ln: 2    data: 27 05                 -  ''.'      - [SRQ] SecurityAccess[0m
[34m vcan0  7E8  [7]  [SF] ln: 6    data: 67 05 05 0C 57 88     -  'g...W.'  - [PSR] SecurityAccess[0m
[31m vcan0  7E0  [7]  [SF] ln: 6    data: 27 06 2B 00 46 A8     -  ''.+.F.'  - [SRQ] SecurityAccess[0m
[34m vcan0  7E8  [4]  [SF] ln: 3    data: 7F 27 35              -  '.'5'     - [NRC] invalidKey[0m
[31m vcan0  7E0  [3]  [SF] ln: 2    data: 27 05                 -  ''.'      - [SRQ] SecurityAccess[0m
[34m vcan0  7E8  [7]  [SF] ln: 6    data: 67 05 4F 07 21 52     -  'g.O.!R'  - [PSR] SecurityAccess[0m
[31m vcan0  7E0  [7]  [SF] ln: 6    data: 27 06 D5 60 A8 CF     -  ''..`..'  - [SRQ] SecurityAccess[0m
[34m vcan0  7E8  [4]  [SF] ln: 3    data: 7F 27 35              -  '.'5'     - [NRC] invalidKey[0m
[31m vcan0  7E0  [3]  [SF] ln: 2    data: 27 05                 -  ''.'      - [SRQ] SecurityAccess[0m
[34m vcan0  7E8  [7]  [SF] ln: 6    data: 67 05 A3 D0 1D 85     -  'g.....'  - [PSR] SecurityAccess[0m
[31m vcan0  7E0  [7]  [SF] ln: 6    data: 27 06 F1 46 2F E4     -  ''..F/.'  - [SRQ] SecurityAccess[0m
[34m vcan0  7E8  [4]  [SF] ln: 3    data: 7F 27 35              -  '.'5'     - [NRC] invalidKey[0m
[31m vcan0  7E0  [3]  [SF] ln: 2    data: 27 05                 -  ''.'      - [SRQ] SecurityAccess[0m
[34m vcan0  7E8  [7]  [SF] ln: 6    data: 67 05 15 A1 F0 D1     -  'g.....'  - [PSR] SecurityAccess[0m
[31m vcan0  7E0  [7]  [SF] ln: 6    data: 27 06 3F 72 F1 AD     -  ''.?r..'  - [SRQ] SecurityAccess[0m
[34m vcan0  7E8  [4]  [SF] ln: 3    data: 7F 27 35              -  '.'5'     - [NRC] invalidKey[0m
[31m vcan0  7E0  [3]  [SF] ln: 2    data: 27 05                 -  ''.'      - [SRQ] SecurityAccess[0m
[34m vcan0  7E8  [7]  [SF] ln: 6    data: 67 05 A4 4A 50 C7     -  'g..JP.'  - [PSR] SecurityAccess[0m
[31m vcan0  7E0  [7]  [SF] ln: 6    data: 27 06 CD 3D F5 95     -  ''..=..'  - [SRQ] SecurityAccess[0m
[34m vcan0  7E8  [4]  [SF] ln: 3    data: 7F 27 35              -  '.'5'     - [NRC] invalidKey[0m
[31m vcan0  7E0  [3]  [SF] ln: 2    data: 27 05                 -  ''.'      - [SRQ] SecurityAccess[0m
[34m vcan0  7E8  [7]  [SF] ln: 6    data: 67 05 D3 A8 FE DF     -  'g.....'  - [PSR] SecurityAccess[0m
[31m vcan0  7E0  [7]  [SF] ln: 6    data: 27 06 9D 28 B4 6B     -  ''..(.k'  - [SRQ] SecurityAccess[0m
[34m vcan0  7E8  [4]  [SF] ln: 3    data: 7F 27 35              -  '.'5'     - [NRC] invalidKey[0m
[31m vcan0  7E0  [3]  [SF] ln: 2    data: 27 05                 -  ''.'      - [SRQ] SecurityAccess[0m
[34m vcan0  7E8  [7]  [SF] ln: 6    data: 67 05 27 4A B2 92     -  'g.'J..'  - [PSR] SecurityAccess[0m
[31m vcan0  7E0  [7]  [SF] ln: 6    data: 27 06 94 59 E5 28     -  ''..Y.('  - [SRQ] SecurityAccess[0m
[34m vcan0  7E8  [4]  [SF] ln: 3    data: 7F 27 35              -  '.'5'     - [NRC] invalidKey[0m
[31m vcan0  7E0  [3]  [SF] ln: 2    data: 27 05                 -  ''.'      - [SRQ] SecurityAccess[0m
[34m vcan0  7E8  [7]  [SF] ln: 6    data: 67 05 D7 A2 1B 89     -  'g.....'  - [PSR] SecurityAccess[0m
[31m vcan0  7E0  [7]  [SF] ln: 6    data: 27 06 7E 9A 07 2E     -  ''.~...'  - [SRQ] SecurityAccess[0m
[34m vcan0  7E8  [4]  [SF] ln: 3    data: 7F 27 35              -  '.'5'     - [NRC] invalidKey[0m
[31m vcan0  7E0  [3]  [SF] ln: 2    data: 27 05                 -  ''.'      - [SRQ] SecurityAccess[0m
[34m vcan0  7E8  [7]  [SF] ln: 6    data: 67 05 31 3A 84 0B     -  'g.1:..'  - [PSR] SecurityAccess[0m
[31m vcan0  7E0  [7]  [SF] ln: 6    data: 27 06 3C B4 80 4B     -  ''.<..K'  - [SRQ] SecurityAccess[0m
[34m vcan0  7E8  [4]  [SF] ln: 3    data: 7F 27 35              -  '.'5'     - [NRC] invalidKey[0m
[31m vcan0  7E0  [3]  [SF] ln: 2    data: 27 05                 -  ''.'      - [SRQ] SecurityAccess[0m
[34m vcan0  7E8  [7]  [SF] ln: 6    data: 67 05 E6 26 F2 79     -  'g..&.y'  - [PSR] SecurityAccess[0m
[31m vcan0  7E0  [7]  [SF] ln: 6    data: 27 06 06 4C 28 E5     -  ''..L(.'  - [SRQ] SecurityAccess[0m
[34m vcan0  7E8  [4]  [SF] ln: 3    data: 7F 27 35              -  '.'5'     - [NRC] invalidKey[0m
[31m vcan0  7E0  [3]  [SF] ln: 2    data: 27 05                 -  ''.'      - [SRQ] SecurityAccess[0m
[34m vcan0  7E8  [7]  [SF] ln: 6    data: 67 05 3A 5D AD 8C     -  'g.:]..'  - [PSR] SecurityAccess[0m
[31m vcan0  7E0  [7]  [SF] ln: 6    data: 27 06 28 5C C2 CE     -  ''.(\..'  - [SRQ] SecurityAccess[0m
[34m vcan0  7E8  [4]  [SF] ln: 3    data: 7F 27 35              -  '.'5'     - [NRC] invalidKey[0m
[31m vcan0  7E0  [3]  [SF] ln: 2    data: 27 05                 -  ''.'      - [SRQ] SecurityAccess[0m
[34m vcan0  7E8  [7]  [SF] ln: 6    data: 67 05 DB D1 79 F0     -  'g...y.'  - [PSR] SecurityAccess[0m
[31m vcan0  7E0  [7]  [SF] ln: 6    data: 27 06 8F 6E 4A 67     -  ''..nJg'  - [SRQ] SecurityAccess[0m
[34m vcan0  7E8  [4]  [SF] ln: 3    data: 7F 27 35              -  '.'5'     - [NRC] invalidKey[0m
[31m vcan0  7E0  [3]  [SF] ln: 2    data: 27 05                 -  ''.'      - [SRQ] SecurityAccess[0m
[34m vcan0  7E8  [7]  [SF] ln: 6    data: 67 05 50 CB 1B 66     -  'g.P..f'  - [PSR] SecurityAccess[0m
[31m vcan0  7E0  [7]  [SF] ln: 6    data: 27 06 90 BF 6D 6F     -  ''...mo'  - [SRQ] SecurityAccess[0m
[34m vcan0  7E8  [4]  [SF] ln: 3    data: 7F 27 35              -  '.'5'     - [NRC] invalidKey[0m
[31m vcan0  7E0  [3]  [SF] ln: 2    data: 27 05                 -  ''.'      - [SRQ] SecurityAccess[0m
[34m vcan0  7E8  [7]  [SF] ln: 6    data: 67 05 D3 4B 8F B0     -  'g..K..'  - [PSR] SecurityAccess[0m
[31m vcan0  7E0  [7]  [SF] ln: 6    data: 27 06 12 A7 72 07     -  ''...r.'  - [SRQ] SecurityAccess[0m
[34m vcan0  7E8  [4]  [SF] ln: 3    data: 7F 27 35              -  '.'5'     - [NRC] invalidKey[0m
[31m vcan0  7E0  [3]  [SF] ln: 2    data: 27 05                 -  ''.'      - [SRQ] SecurityAccess[0m
[34m vcan0  7E8  [7]  [SF] ln: 6    data: 67 05 CA 15 3B 8A     -  'g...;.'  - [PSR] SecurityAccess[0m
[31m vcan0  7E0  [7]  [SF] ln: 6    data: 27 06 46 60 44 D8     -  ''.F`D.'  - [SRQ] SecurityAccess[0m
[34m vcan0  7E8  [4]  [SF] ln: 3    data: 7F 27 35              -  '.'5'     - [NRC] invalidKey[0m
[31m vcan0  7E0  [3]  [SF] ln: 2    data: 27 05                 -  ''.'      - [SRQ] SecurityAccess[0m
[34m vcan0  7E8  [7]  [SF] ln: 6    data: 67 05 99 E3 7F AB     -  'g.....'  - [PSR] SecurityAccess[0m
[31m vcan0  7E0  [7]  [SF] ln: 6    data: 27 06 BD 30 B5 8F     -  ''..0..'  - [SRQ] SecurityAccess[0m
[34m vcan0  7E8  [4]  [SF] ln: 3    data: 7F 27 35              -  '.'5'     - [NRC] invalidKey[0m
[31m vcan0  7E0  [3]  [SF] ln: 2    data: 27 05                 -  ''.'      - [SRQ] SecurityAccess[0m
[34m vcan0  7E8  [7]  [SF] ln: 6    data: 67 05 71 5E C1 BC     -  'g.q^..'  - [PSR] SecurityAccess[0m
[31m vcan0  7E0  [7]  [SF] ln: 6    data: 27 06 F6 78 AA AF     -  ''..x..'  - [SRQ] SecurityAccess[0m
[34m vcan0  7E8  [4]  [SF] ln: 3    data: 7F 27 35              -  '.'5'     - [NRC] invalidKey[0m
[31m vcan0  7E0  [3]  [SF] ln: 2    data: 27 05                 -  ''.'      - [SRQ] SecurityAccess[0m
[34m vcan0  7E8  [7]  [SF] ln: 6    data: 67 05 C9 E5 28 A4     -  'g...(.'  - [PSR] SecurityAccess[0m
[31m vcan0  7E0  [7]  [SF] ln: 6    data: 27 06 A9 03 7A AD     -  ''...z.'  - [SRQ] SecurityAccess[0m
[34m vcan0  7E8  [4]  [SF] ln: 3    data: 7F 27 35              -  '.'5'     - [NRC] invalidKey[0m
[31m vcan0  7E0  [3]  [SF] ln: 2    data: 27 05                 -  ''.'      - [SRQ] SecurityAccess[0m
[34m vcan0  7E8  [7]  [SF] ln: 6    data: 67 05 F6 99 65 F7     -  'g...e.'  - [PSR] SecurityAccess[0m
[31m vcan0  7E0  [7]  [SF] ln: 6    data: 27 06 FA 9A 47 BA     -  ''...G.'  - [SRQ] SecurityAccess[0m
[34m vcan0  7E8  [4]  [SF] ln: 3    data: 7F 27 35              -  '.'5'     - [NRC] invalidKey[0m
[31m vcan0  7E0  [3]  [SF] ln: 2    data: 27 05                 -  ''.'      - [SRQ] SecurityAccess[0m
[34m vcan0  7E8  [7]  [SF] ln: 6    data: 67 05 14 A7 79 5E     -  'g...y^'  - [PSR] SecurityAccess[0m
[31m vcan0  7E0  [7]  [SF] ln: 6    data: 27 06 B5 83 C1 14     -  ''.....'  - [SRQ] SecurityAccess[0m
[34m vcan0  7E8  [4]  [SF] ln: 3    data: 7F 27 35              -  '.'5'     - [NRC] invalidKey[0m
[31m vcan0  7E0  [3]  [SF] ln: 2    data: 27 05                 -  ''.'      - [SRQ] SecurityAccess[0m
[34m vcan0  7E8  [7]  [SF] ln: 6    data: 67 05 B1 AC 11 E5     -  'g.....'  - [PSR] SecurityAccess[0m
[31m vcan0  7E0  [7]  [SF] ln: 6    data: 27 06 C4 CD DF 14     -  ''.....'  - [SRQ] SecurityAccess[0m
[34m vcan0  7E8  [4]  [SF] ln: 3    data: 7F 27 35              -  '.'5'     - [NRC] invalidKey[0m
[31m vcan0  7E0  [3]  [SF] ln: 2    data: 27 05                 -  ''.'      - [SRQ] SecurityAccess[0m
[34m vcan0  7E8  [7]  [SF] ln: 6    data: 67 05 3B 29 DD C2     -  'g.;)..'  - [PSR] SecurityAccess[0m
[31m vcan0  7E0  [7]  [SF] ln: 6    data: 27 06 B5 43 EA 16     -  ''..C..'  - [SRQ] SecurityAccess[0m
[34m vcan0  7E8  [4]  [SF] ln: 3    data: 7F 27 35              -  '.'5'     - [NRC] invalidKey[0m
[31m vcan0  7E0  [3]  [SF] ln: 2    data: 27 05                 -  ''.'      - [SRQ] SecurityAccess[0m
[34m vcan0  7E8  [7]  [SF] ln: 6    data: 67 05 DE 33 68 B3     -  'g..3h.'  - [PSR] SecurityAccess[0m
[31m vcan0  7E0  [7]  [SF] ln: 6    data: 27 06 2E 21 0F 4E     -  ''..!.N'  - [SRQ] SecurityAccess[0m
[34m vcan0  7E8  [4]  [SF] ln: 3    data: 7F 27 35              -  '.'5'     - [NRC] invalidKey[0m
[31m vcan0  7E0  [3]  [SF] ln: 2    data: 27 05                 -  ''.'      - [SRQ] SecurityAccess[0m
[34m vcan0  7E8  [7]  [SF] ln: 6    data: 67 05 77 D2 36 E0     -  'g.w.6.'  - [PSR] SecurityAccess[0m
[31m vcan0  7E0  [7]  [SF] ln: 6    data: 27 06 BC 0A 43 3C     -  ''...C<'  - [SRQ] SecurityAccess[0m
[34m vcan0  7E8  [4]  [SF] ln: 3    data: 7F 27 35              -  '.'5'     - [NRC] invalidKey[0m
[31m vcan0  7E0  [3]  [SF] ln: 2    data: 27 05                 -  ''.'      - [SRQ] SecurityAccess[0m
[34m vcan0  7E8  [7]  [SF] ln: 6    data: 67 05 4D 1D C8 7C     -  'g.M..|'  - [PSR] SecurityAccess[0m
[31m vcan0  7E0  [7]  [SF] ln: 6    data: 27 06 B1 0B 00 C0     -  ''.....'  - [SRQ] SecurityAccess[0m
[34m vcan0  7E8  [4]  [SF] ln: 3    data: 7F 27 35              -  '.'5'     - [NRC] invalidKey[0m
[31m vcan0  7E0  [3]  [SF] ln: 2    data: 27 05                 -  ''.'      - [SRQ] SecurityAccess[0m
[34m vcan0  7E8  [7]  [SF] ln: 6    data: 67 05 DF A8 4F CD     -  'g...O.'  - [PSR] SecurityAccess[0m
[31m vcan0  7E0  [7]  [SF] ln: 6    data: 27 06 C3 8D BE 08     -  ''.....'  - [SRQ] SecurityAccess[0m
[34m vcan0  7E8  [4]  [SF] ln: 3    data: 7F 27 35              -  '.'5'     - [NRC] invalidKey[0m
[31m vcan0  7E0  [3]  [SF] ln: 2    data: 27 05                 -  ''.'      - [SRQ] SecurityAccess[0m
[34m vcan0  7E8  [7]  [SF] ln: 6    data: 67 05 42 00 BE A7     -  'g.B...'  - [PSR] SecurityAccess[0m
[31m vcan0  7E0  [7]  [SF] ln: 6    data: 27 06 19 EB 17 62     -  ''....b'  - [SRQ] SecurityAccess[0m
[34m vcan0  7E8  [4]  [SF] ln: 3    data: 7F 27 35              -  '.'5'     - [NRC] invalidKey[0m
[31m vcan0  7E0  [3]  [SF] ln: 2    data: 27 05                 -  ''.'      - [SRQ] SecurityAccess[0m
[34m vcan0  7E8  [7]  [SF] ln: 6    data: 67 05 CA 7B 0E E6     -  'g..{..'  - [PSR] SecurityAccess[0m
[31m vcan0  7E0  [7]  [SF] ln: 6    data: 27 06 6F 0A 0C EC     -  ''.o...'  - [SRQ] SecurityAccess[0m
[34m vcan0  7E8  [4]  [SF] ln: 3    data: 7F 27 35              -  '.'5'     - [NRC] invalidKey[0m
[31m vcan0  7E0  [3]  [SF] ln: 2    data: 27 05                 -  ''.'      - [SRQ] SecurityAccess[0m
[34m vcan0  7E8  [7]  [SF] ln: 6    data: 67 05 59 4E FC D6     -  'g.YN..'  - [PSR] SecurityAccess[0m
[31m vcan0  7E0  [7]  [SF] ln: 6    data: 27 06 B6 1D 19 35     -  ''....5'  - [SRQ] SecurityAccess[0m
[34m vcan0  7E8  [4]  [SF] ln: 3    data: 7F 27 35              -  '.'5'     - [NRC] invalidKey[0m
[31m vcan0  7E0  [3]  [SF] ln: 2    data: 27 05                 -  ''.'      - [SRQ] SecurityAccess[0m
[34m vcan0  7E8  [7]  [SF] ln: 6    data: 67 05 BF 7E 27 A9     -  'g..~'.'  - [PSR] SecurityAccess[0m
[31m vcan0  7E0  [7]  [SF] ln: 6    data: 27 06 42 62 BB 9D     -  ''.Bb..'  - [SRQ] SecurityAccess[0m
[34m vcan0  7E8  [4]  [SF] ln: 3    data: 7F 27 35              -  '.'5'     - [NRC] invalidKey[0m
[31m vcan0  7E0  [3]  [SF] ln: 2    data: 27 05                 -  ''.'      - [SRQ] SecurityAccess[0m
[34m vcan0  7E8  [7]  [SF] ln: 6    data: 67 05 53 BD 6D EC     -  'g.S.m.'  - [PSR] SecurityAccess[0m
[31m vcan0  7E0  [7]  [SF] ln: 6    data: 27 06 CB 65 51 4B     -  ''..eQK'  - [SRQ] SecurityAccess[0m
[34m vcan0  7E8  [4]  [SF] ln: 3    data: 7F 27 35              -  '.'5'     - [NRC] invalidKey[0m
[31m vcan0  7E0  [3]  [SF] ln: 2    data: 27 05                 -  ''.'      - [SRQ] SecurityAccess[0m
[34m vcan0  7E8  [7]  [SF] ln: 6    data: 67 05 4E 36 59 AA     -  'g.N6Y.'  - [PSR] SecurityAccess[0m
[31m vcan0  7E0  [7]  [SF] ln: 6    data: 27 06 2C 88 65 01     -  ''.,.e.'  - [SRQ] SecurityAccess[0m
[34m vcan0  7E8  [4]  [SF] ln: 3    data: 7F 27 35              -  '.'5'     - [NRC] invalidKey[0m
[31m vcan0  7E0  [3]  [SF] ln: 2    data: 27 05                 -  ''.'      - [SRQ] SecurityAccess[0m
[34m vcan0  7E8  [7]  [SF] ln: 6    data: 67 05 6E 62 EB 6C     -  'g.nb.l'  - [PSR] SecurityAccess[0m
[31m vcan0  7E0  [7]  [SF] ln: 6    data: 27 06 8B A6 FB 9A     -  ''.....'  - [SRQ] SecurityAccess[0m
[34m vcan0  7E8  [4]  [SF] ln: 3    data: 7F 27 35              -  '.'5'     - [NRC] invalidKey[0m
[31m vcan0  7E0  [3]  [SF] ln: 2    data: 27 05                 -  ''.'      - [SRQ] SecurityAccess[0m
[34m vcan0  7E8  [7]  [SF] ln: 6    data: 67 05 33 48 BD 1A     -  'g.3H..'  - [PSR] SecurityAccess[0m
[31m vcan0  7E0  [7]  [SF] ln: 6    data: 27 06 18 04 74 A9     -  ''...t.'  - [SRQ] SecurityAccess[0m
[34m vcan0  7E8  [4]  [SF] ln: 3    data: 7F 27 35              -  '.'5'     - [NRC] invalidKey[0m
[31m vcan0  7E0  [3]  [SF] ln: 2    data: 27 05                 -  ''.'      - [SRQ] SecurityAccess[0m
[34m vcan0  7E8  [7]  [SF] ln: 6    data: 67 05 CF 1C 29 D8     -  'g...).'  - [PSR] SecurityAccess[0m
[31m vcan0  7E0  [7]  [SF] ln: 6    data: 27 06 49 2E 4F C8     -  ''.I.O.'  - [SRQ] SecurityAccess[0m
[34m vcan0  7E8  [4]  [SF] ln: 3    data: 7F 27 35              -  '.'5'     - [NRC] invalidKey[0m
[31m vcan0  7E0  [3]  [SF] ln: 2    data: 27 05                 -  ''.'      - [SRQ] SecurityAccess[0m
[34m vcan0  7E8  [7]  [SF] ln: 6    data: 67 05 CE DC 18 C5     -  'g.....'  - [PSR] SecurityAccess[0m
[31m vcan0  7E0  [7]  [SF] ln: 6    data: 27 06 E1 07 78 BC     -  ''...x.'  - [SRQ] SecurityAccess[0m
[34m vcan0  7E8  [4]  [SF] ln: 3    data: 7F 27 35              -  '.'5'     - [NRC] invalidKey[0m
[31m vcan0  7E0  [3]  [SF] ln: 2    data: 27 05                 -  ''.'      - [SRQ] SecurityAccess[0m
[34m vcan0  7E8  [7]  [SF] ln: 6    data: 67 05 AB B6 9D B3     -  'g.....'  - [PSR] SecurityAccess[0m
[31m vcan0  7E0  [7]  [SF] ln: 6    data: 27 06 76 99 B3 2B     -  ''.v..+'  - [SRQ] SecurityAccess[0m
[34m vcan0  7E8  [4]  [SF] ln: 3    data: 7F 27 35              -  '.'5'     - [NRC] invalidKey[0m
[31m vcan0  7E0  [3]  [SF] ln: 2    data: 27 05                 -  ''.'      - [SRQ] SecurityAccess[0m
[34m vcan0  7E8  [7]  [SF] ln: 6    data: 67 05 25 46 36 15     -  'g.%F6.'  - [PSR] SecurityAccess[0m
[31m vcan0  7E0  [7]  [SF] ln: 6    data: 27 06 84 50 23 BC     -  ''..P#.'  - [SRQ] SecurityAccess[0m
[34m vcan0  7E8  [4]  [SF] ln: 3    data: 7F 27 35              -  '.'5'     - [NRC] invalidKey[0m
[31m vcan0  7E0  [3]  [SF] ln: 2    data: 27 05                 -  ''.'      - [SRQ] SecurityAccess[0m
[34m vcan0  7E8  [7]  [SF] ln: 6    data: 67 05 E8 BF E1 87     -  'g.....'  - [PSR] SecurityAccess[0m
[31m vcan0  7E0  [7]  [SF] ln: 6    data: 27 06 10 4E E5 D2     -  ''..N..'  - [SRQ] SecurityAccess[0m
[34m vcan0  7E8  [4]  [SF] ln: 3    data: 7F 27 35              -  '.'5'     - [NRC] invalidKey[0m
[31m vcan0  7E0  [3]  [SF] ln: 2    data: 27 05                 -  ''.'      - [SRQ] SecurityAccess[0m
[34m vcan0  7E8  [7]  [SF] ln: 6    data: 67 05 9A BD 33 46     -  'g...3F'  - [PSR] SecurityAccess[0m
[31m vcan0  7E0  [7]  [SF] ln: 6    data: 27 06 58 4C 0A 16     -  ''.XL..'  - [SRQ] SecurityAccess[0m
[34m vcan0  7E8  [4]  [SF] ln: 3    data: 7F 27 35              -  '.'5'     - [NRC] invalidKey[0m
[31m vcan0  7E0  [3]  [SF] ln: 2    data: 27 05                 -  ''.'      - [SRQ] SecurityAccess[0m
[34m vcan0  7E8  [7]  [SF] ln: 6    data: 67 05 FB C5 A5 B3     -  'g.....'  - [PSR] SecurityAccess[0m
[31m vcan0  7E0  [7]  [SF] ln: 6    data: 27 06 A8 79 B6 E8     -  ''..y..'  - [SRQ] SecurityAccess[0m
[34m vcan0  7E8  [4]  [SF] ln: 3    data: 7F 27 35              -  '.'5'     - [NRC] invalidKey[0m
[31m vcan0  7E0  [3]  [SF] ln: 2    data: 27 05                 -  ''.'      - [SRQ] SecurityAccess[0m
[34m vcan0  7E8  [7]  [SF] ln: 6    data: 67 05 7E 2F 08 02     -  'g.~/..'  - [PSR] SecurityAccess[0m
[31m vcan0  7E0  [7]  [SF] ln: 6    data: 27 06 0E EB 2E D0     -  ''.....'  - [SRQ] SecurityAccess[0m
[34m vcan0  7E8  [4]  [SF] ln: 3    data: 7F 27 35              -  '.'5'     - [NRC] invalidKey[0m
[31m vcan0  7E0  [3]  [SF] ln: 2    data: 27 05                 -  ''.'      - [SRQ] SecurityAccess[0m
[34m vcan0  7E8  [7]  [SF] ln: 6    data: 67 05 A9 B2 89 56     -  'g....V'  - [PSR] SecurityAccess[0m
[31m vcan0  7E0  [7]  [SF] ln: 6    data: 27 06 96 66 3A 03     -  ''..f:.'  - [SRQ] SecurityAccess[0m
[34m vcan0  7E8  [4]  [SF] ln: 3    data: 7F 27 35              -  '.'5'     - [NRC] invalidKey[0m
[31m vcan0  7E0  [3]  [SF] ln: 2    data: 27 05                 -  ''.'      - [SRQ] SecurityAccess[0m
[34m vcan0  7E8  [7]  [SF] ln: 6    data: 67 05 F0 2A 1D F7     -  'g..*..'  - [PSR] SecurityAccess[0m
[31m vcan0  7E0  [7]  [SF] ln: 6    data: 27 06 90 B2 47 16     -  ''...G.'  - [SRQ] SecurityAccess[0m
[34m vcan0  7E8  [4]  [SF] ln: 3    data: 7F 27 35              -  '.'5'     - [NRC] invalidKey[0m
[31m vcan0  7E0  [3]  [SF] ln: 2    data: 27 05                 -  ''.'      - [SRQ] SecurityAccess[0m
[34m vcan0  7E8  [7]  [SF] ln: 6    data: 67 05 DD 1D 42 39     -  'g...B9'  - [PSR] SecurityAccess[0m
[31m vcan0  7E0  [7]  [SF] ln: 6    data: 27 06 A4 FD 63 C0     -  ''...c.'  - [SRQ] SecurityAccess[0m
[34m vcan0  7E8  [4]  [SF] ln: 3    data: 7F 27 35              -  '.'5'     - [NRC] invalidKey[0m
[31m vcan0  7E0  [3]  [SF] ln: 2    data: 27 05                 -  ''.'      - [SRQ] SecurityAccess[0m
[34m vcan0  7E8  [7]  [SF] ln: 6    data: 67 05 49 7F F5 8D     -  'g.I...'  - [PSR] SecurityAccess[0m
[31m vcan0  7E0  [7]  [SF] ln: 6    data: 27 06 2A 15 46 D5     -  ''.*.F.'  - [SRQ] SecurityAccess[0m
[34m vcan0  7E8  [4]  [SF] ln: 3    data: 7F 27 35              -  '.'5'     - [NRC] invalidKey[0m
[31m vcan0  7E0  [3]  [SF] ln: 2    data: 27 05                 -  ''.'      - [SRQ] SecurityAccess[0m
[34m vcan0  7E8  [7]  [SF] ln: 6    data: 67 05 57 44 EC 8D     -  'g.WD..'  - [PSR] SecurityAccess[0m
[31m vcan0  7E0  [7]  [SF] ln: 6    data: 27 06 9D 1D FF 27     -  ''....''  - [SRQ] SecurityAccess[0m
[34m vcan0  7E8  [4]  [SF] ln: 3    data: 7F 27 35              -  '.'5'     - [NRC] invalidKey[0m
[31m vcan0  7E0  [3]  [SF] ln: 2    data: 27 05                 -  ''.'      - [SRQ] SecurityAccess[0m
[34m vcan0  7E8  [7]  [SF] ln: 6    data: 67 05 EF 80 70 74     -  'g...pt'  - [PSR] SecurityAccess[0m
[31m vcan0  7E0  [7]  [SF] ln: 6    data: 27 06 0C 0C 8C D7     -  ''.....'  - [SRQ] SecurityAccess[0m
[34m vcan0  7E8  [4]  [SF] ln: 3    data: 7F 27 35              -  '.'5'     - [NRC] invalidKey[0m
[31m vcan0  7E0  [3]  [SF] ln: 2    data: 27 05                 -  ''.'      - [SRQ] SecurityAccess[0m
[34m vcan0  7E8  [7]  [SF] ln: 6    data: 67 05 72 F7 64 60     -  'g.r.d`'  - [PSR] SecurityAccess[0m
[31m vcan0  7E0  [7]  [SF] ln: 6    data: 27 06 F9 90 9E 27     -  ''....''  - [SRQ] SecurityAccess[0m
[34m vcan0  7E8  [4]  [SF] ln: 3    data: 7F 27 35              -  '.'5'     - [NRC] invalidKey[0m
[31m vcan0  7E0  [3]  [SF] ln: 2    data: 27 05                 -  ''.'      - [SRQ] SecurityAccess[0m
[34m vcan0  7E8  [7]  [SF] ln: 6    data: 67 05 BD A5 6C 9E     -  'g...l.'  - [PSR] SecurityAccess[0m
[31m vcan0  7E0  [7]  [SF] ln: 6    data: 27 06 A7 8A 12 28     -  ''....('  - [SRQ] SecurityAccess[0m
[34m vcan0  7E8  [4]  [SF] ln: 3    data: 7F 27 35              -  '.'5'     - [NRC] invalidKey[0m
[31m vcan0  7E0  [3]  [SF] ln: 2    data: 27 05                 -  ''.'      - [SRQ] SecurityAccess[0m
[34m vcan0  7E8  [7]  [SF] ln: 6    data: 67 05 4D 68 BB 02     -  'g.Mh..'  - [PSR] SecurityAccess[0m
[31m vcan0  7E0  [7]  [SF] ln: 6    data: 27 06 44 F0 4B 7F     -  ''.D.K.'  - [SRQ] SecurityAccess[0m
[34m vcan0  7E8  [4]  [SF] ln: 3    data: 7F 27 35              -  '.'5'     - [NRC] invalidKey[0m
[31m vcan0  7E0  [3]  [SF] ln: 2    data: 27 05                 -  ''.'      - [SRQ] SecurityAccess[0m
[34m vcan0  7E8  [7]  [SF] ln: 6    data: 67 05 6F 58 1B 8F     -  'g.oX..'  - [PSR] SecurityAccess[0m
[31m vcan0  7E0  [7]  [SF] ln: 6    data: 27 06 17 12 09 D5     -  ''.....'  - [SRQ] SecurityAccess[0m
[34m vcan0  7E8  [4]  [SF] ln: 3    data: 7F 27 35              -  '.'5'     - [NRC] invalidKey[0m
[31m vcan0  7E0  [3]  [SF] ln: 2    data: 27 05                 -  ''.'      - [SRQ] SecurityAccess[0m
[34m vcan0  7E8  [7]  [SF] ln: 6    data: 67 05 24 C6 0C 0A     -  'g.$...'  - [PSR] SecurityAccess[0m
[31m vcan0  7E0  [7]  [SF] ln: 6    data: 27 06 CF 78 01 A0     -  ''..x..'  - [SRQ] SecurityAccess[0m
[34m vcan0  7E8  [4]  [SF] ln: 3    data: 7F 27 35              -  '.'5'     - [NRC] invalidKey[0m
[31m vcan0  7E0  [3]  [SF] ln: 2    data: 27 05                 -  ''.'      - [SRQ] SecurityAccess[0m
[34m vcan0  7E8  [7]  [SF] ln: 6    data: 67 05 C2 51 36 04     -  'g..Q6.'  - [PSR] SecurityAccess[0m
[31m vcan0  7E0  [7]  [SF] ln: 6    data: 27 06 1B 0A DF 09     -  ''.....'  - [SRQ] SecurityAccess[0m
[34m vcan0  7E8  [4]  [SF] ln: 3    data: 7F 27 35              -  '.'5'     - [NRC] invalidKey[0m
[31m vcan0  7E0  [3]  [SF] ln: 2    data: 27 05                 -  ''.'      - [SRQ] SecurityAccess[0m
[34m vcan0  7E8  [7]  [SF] ln: 6    data: 67 05 29 72 9D 01     -  'g.)r..'  - [PSR] SecurityAccess[0m
[31m vcan0  7E0  [7]  [SF] ln: 6    data: 27 06 5D B3 DC F3     -  ''.]...'  - [SRQ] SecurityAccess[0m
[34m vcan0  7E8  [4]  [SF] ln: 3    data: 7F 27 35              -  '.'5'     - [NRC] invalidKey[0m
[31m vcan0  7E0  [3]  [SF] ln: 2    data: 27 05                 -  ''.'      - [SRQ] SecurityAccess[0m
[34m vcan0  7E8  [7]  [SF] ln: 6    data: 67 05 D6 37 42 EB     -  'g..7B.'  - [PSR] SecurityAccess[0m
[31m vcan0  7E0  [7]  [SF] ln: 6    data: 27 06 1C 66 BE AD     -  ''..f..'  - [SRQ] SecurityAccess[0m
[34m vcan0  7E8  [4]  [SF] ln: 3    data: 7F 27 35              -  '.'5'     - [NRC] invalidKey[0m
[31m vcan0  7E0  [3]  [SF] ln: 2    data: 27 05                 -  ''.'      - [SRQ] SecurityAccess[0m
[34m vcan0  7E8  [7]  [SF] ln: 6    data: 67 05 37 55 C5 EF     -  'g.7U..'  - [PSR] SecurityAccess[0m
[31m vcan0  7E0  [7]  [SF] ln: 6    data: 27 06 17 F2 7C 42     -  ''...|B'  - [SRQ] SecurityAccess[0m
[34m vcan0  7E8  [4]  [SF] ln: 3    data: 7F 27 35              -  '.'5'     - [NRC] invalidKey[0m
[31m vcan0  7E0  [3]  [SF] ln: 2    data: 27 05                 -  ''.'      - [SRQ] SecurityAccess[0m
[34m vcan0  7E8  [7]  [SF] ln: 6    data: 67 05 7F 69 47 B6     -  'g..iG.'  - [PSR] SecurityAccess[0m
[31m vcan0  7E0  [7]  [SF] ln: 6    data: 27 06 61 78 01 90     -  ''.ax..'  - [SRQ] SecurityAccess[0m
[34m vcan0  7E8  [4]  [SF] ln: 3    data: 7F 27 35              -  '.'5'     - [NRC] invalidKey[0m
[31m vcan0  7E0  [3]  [SF] ln: 2    data: 27 05                 -  ''.'      - [SRQ] SecurityAccess[0m
[34m vcan0  7E8  [7]  [SF] ln: 6    data: 67 05 10 D2 F2 57     -  'g....W'  - [PSR] SecurityAccess[0m
[31m vcan0  7E0  [7]  [SF] ln: 6    data: 27 06 BB 5B 12 4D     -  ''..[.M'  - [SRQ] SecurityAccess[0m
[34m vcan0  7E8  [4]  [SF] ln: 3    data: 7F 27 35              -  '.'5'     - [NRC] invalidKey[0m
[31m vcan0  7E0  [3]  [SF] ln: 2    data: 27 05                 -  ''.'      - [SRQ] SecurityAccess[0m
[34m vcan0  7E8  [7]  [SF] ln: 6    data: 67 05 F1 D4 8E 20     -  'g.... '  - [PSR] SecurityAccess[0m
[31m vcan0  7E0  [7]  [SF] ln: 6    data: 27 06 8C 4E CE 98     -  ''..N..'  - [SRQ] SecurityAccess[0m
[34m vcan0  7E8  [4]  [SF] ln: 3    data: 7F 27 35              -  '.'5'     - [NRC] invalidKey[0m
[31m vcan0  7E0  [3]  [SF] ln: 2    data: 27 05                 -  ''.'      - [SRQ] SecurityAccess[0m
[34m vcan0  7E8  [7]  [SF] ln: 6    data: 67 05 0C 52 D6 90     -  'g..R..'  - [PSR] SecurityAccess[0m
[31m vcan0  7E0  [7]  [SF] ln: 6    data: 27 06 F8 71 9D 10     -  ''..q..'  - [SRQ] SecurityAccess[0m
[34m vcan0  7E8  [4]  [SF] ln: 3    data: 7F 27 35              -  '.'5'     - [NRC] invalidKey[0m
[31m vcan0  7E0  [3]  [SF] ln: 2    data: 27 05                 -  ''.'      - [SRQ] SecurityAccess[0m
[34m vcan0  7E8  [7]  [SF] ln: 6    data: 67 05 B7 69 13 45     -  'g..i.E'  - [PSR] SecurityAccess[0m
[31m vcan0  7E0  [7]  [SF] ln: 6    data: 27 06 A4 6D BD 5F     -  ''..m._'  - [SRQ] SecurityAccess[0m
[34m vcan0  7E8  [4]  [SF] ln: 3    data: 7F 27 35              -  '.'5'     - [NRC] invalidKey[0m
[31m vcan0  7E0  [3]  [SF] ln: 2    data: 27 05                 -  ''.'      - [SRQ] SecurityAccess[0m
[34m vcan0  7E8  [7]  [SF] ln: 6    data: 67 05 BD 20 AA DF     -  'g.. ..'  - [PSR] SecurityAccess[0m
[31m vcan0  7E0  [7]  [SF] ln: 6    data: 27 06 15 4F 76 5D     -  ''..Ov]'  - [SRQ] SecurityAccess[0m
[34m vcan0  7E8  [4]  [SF] ln: 3    data: 7F 27 35              -  '.'5'     - [NRC] invalidKey[0m
[31m vcan0  7E0  [3]  [SF] ln: 2    data: 27 05                 -  ''.'      - [SRQ] SecurityAccess[0m
[34m vcan0  7E8  [7]  [SF] ln: 6    data: 67 05 F6 ED C0 F9     -  'g.....'  - [PSR] SecurityAccess[0m
[31m vcan0  7E0  [7]  [SF] ln: 6    data: 27 06 AE 61 75 69     -  ''..aui'  - [SRQ] SecurityAccess[0m
